! NanoVNA-App
! Date: 2025-10-30 21:10:24
! Start: 10kHz Stop: 5GHz Points: 3201
! S-Parameter data: F S11 S21 S12 S22
# Hz S RI R 50
!     Frequency           S11_Real           S11_Imag           S21_Real           S21_Imag           S12_Real           S12_Imag           S22_Real           S22_Imag
          10000    1.002176762e+00   -3.552278504e-04    1.980923116e-06   -1.808628440e-06    0.000000000e+00    0.000000000e+00    0.000000000e+00    0.000000000e+00
        1572497    9.944043159e-01   -3.737056628e-02   -7.399357855e-06    2.312846482e-05    0.000000000e+00    0.000000000e+00    0.000000000e+00    0.000000000e+00
        3134994    9.937736988e-01   -7.427110523e-02    4.773959517e-05   -4.383735359e-05    0.000000000e+00    0.000000000e+00    0.000000000e+00    0.000000000e+00
        4697491    9.895944595e-01   -1.118693277e-01    1.078471541e-05   -2.652872354e-05    0.000000000e+00    0.000000000e+00    0.000000000e+00    0.000000000e+00
        6259988    9.842101932e-01   -1.483973712e-01    1.858454198e-05   -1.893378794e-05    0.000000000e+00    0.000000000e+00    0.000000000e+00    0.000000000e+00
        7822485    9.776005745e-01   -1.846677512e-01   -1.256540418e-05    2.311170101e-05    0.000000000e+00    0.000000000e+00    0.000000000e+00    0.000000000e+00
        9384982    9.697055817e-01   -2.204581052e-01   -3.682170063e-05    2.883188426e-05    0.000000000e+00    0.000000000e+00    0.000000000e+00    0.000000000e+00
       10947479    9.610230923e-01   -2.556149662e-01   -2.515409142e-05    1.968629658e-05    0.000000000e+00    0.000000000e+00    0.000000000e+00    0.000000000e+00
       12509976    9.507114887e-01   -2.906683087e-01    9.389594197e-06    7.500872016e-06    0.000000000e+00    0.000000000e+00    0.000000000e+00    0.000000000e+00
       14072473    9.394345880e-01   -3.252799809e-01   -4.010275006e-06    1.384783536e-05    0.000000000e+00    0.000000000e+00    0.000000000e+00    0.000000000e+00
       15634970    9.266080856e-01   -3.597187698e-01    2.091191709e-05    1.892913133e-05    0.000000000e+00    0.000000000e+00    0.000000000e+00    0.000000000e+00
       17197467    9.132639766e-01   -3.924039304e-01    1.128669828e-05    2.819206566e-05    0.000000000e+00    0.000000000e+00    0.000000000e+00    0.000000000e+00
       18759964    8.977677226e-01   -4.260754585e-01   -3.577210009e-05    1.598149538e-05    0.000000000e+00    0.000000000e+00    0.000000000e+00    0.000000000e+00
       20322461    8.819283247e-01   -4.582916498e-01   -2.905633301e-05    3.142002970e-05    0.000000000e+00    0.000000000e+00    0.000000000e+00    0.000000000e+00
       21884958    8.646317720e-01   -4.894012809e-01    5.214475095e-06    4.045199603e-05    0.000000000e+00    0.000000000e+00    0.000000000e+00    0.000000000e+00
       23447455    8.469952345e-01   -5.208572149e-01    1.683738083e-05    4.589464515e-05    0.000000000e+00    0.000000000e+00    0.000000000e+00    0.000000000e+00
       25009952    8.271418810e-01   -5.512697101e-01    8.169561625e-06    4.127621651e-06    0.000000000e+00    0.000000000e+00    0.000000000e+00    0.000000000e+00
       26572449    8.074100018e-01   -5.808125734e-01    2.599321306e-05    2.180226147e-05    0.000000000e+00    0.000000000e+00    0.000000000e+00    0.000000000e+00
       28134946    7.855873108e-01   -6.095048785e-01    4.274770617e-06    6.198137999e-05    0.000000000e+00    0.000000000e+00    0.000000000e+00    0.000000000e+00
       29697443    7.636845112e-01   -6.374328136e-01    2.074893564e-05    6.743427366e-05    0.000000000e+00    0.000000000e+00    0.000000000e+00    0.000000000e+00
       31259940    7.403798699e-01   -6.641368866e-01    6.766058505e-06   -2.499390393e-05    0.000000000e+00    0.000000000e+00    0.000000000e+00    0.000000000e+00
       32822437    7.165340781e-01   -6.901153922e-01   -2.244487405e-07    4.238914698e-05    0.000000000e+00    0.000000000e+00    0.000000000e+00    0.000000000e+00
       34384934    6.919277310e-01   -7.157803774e-01   -1.807045192e-05    4.121847451e-05    0.000000000e+00    0.000000000e+00    0.000000000e+00    0.000000000e+00
       35947431    6.662237048e-01   -7.398160696e-01    8.298084140e-06    7.614493370e-06    0.000000000e+00    0.000000000e+00    0.000000000e+00    0.000000000e+00
       37509928    6.397660375e-01   -7.629561424e-01    5.774199963e-05    2.761371434e-06    0.000000000e+00    0.000000000e+00    0.000000000e+00    0.000000000e+00
       39072425    6.126286983e-01   -7.851309776e-01   -7.355585694e-06    3.216508776e-05    0.000000000e+00    0.000000000e+00    0.000000000e+00    0.000000000e+00
       40634922    5.849682689e-01   -8.065147996e-01    2.539996058e-05    2.007838339e-05    0.000000000e+00    0.000000000e+00    0.000000000e+00    0.000000000e+00
       42197419    5.566244125e-01   -8.273718953e-01    4.346482456e-05    4.209205508e-05    0.000000000e+00    0.000000000e+00    0.000000000e+00    0.000000000e+00
       43759916    5.275817513e-01   -8.464333415e-01    6.123911589e-05    7.611420006e-05    0.000000000e+00    0.000000000e+00    0.000000000e+00    0.000000000e+00
       45322413    4.984436035e-01   -8.644460440e-01   -3.401190042e-06    5.514267832e-05    0.000000000e+00    0.000000000e+00    0.000000000e+00    0.000000000e+00
       46884910    4.685148895e-01   -8.817931414e-01    1.853704453e-05    2.138316631e-06    0.000000000e+00    0.000000000e+00    0.000000000e+00    0.000000000e+00
       48447407    4.372356534e-01   -8.978978992e-01    5.155894905e-05    2.354104072e-05    0.000000000e+00    0.000000000e+00    0.000000000e+00    0.000000000e+00
       50009904    4.070546627e-01   -9.127808213e-01    1.799967140e-05    7.292721421e-05    0.000000000e+00    0.000000000e+00    0.000000000e+00    0.000000000e+00
       51572401    3.753043413e-01   -9.264593720e-01    3.635417670e-05    2.311170101e-05    0.000000000e+00    0.000000000e+00    0.000000000e+00    0.000000000e+00
       53134898    3.435224891e-01   -9.392440915e-01    4.285573959e-05    4.293862730e-05    0.000000000e+00    0.000000000e+00    0.000000000e+00    0.000000000e+00
       54697395    3.113378584e-01   -9.511245489e-01    6.464496255e-05    1.072883606e-06    0.000000000e+00    0.000000000e+00    0.000000000e+00    0.000000000e+00
       56259892    2.791346312e-01   -9.616383910e-01    5.469284952e-05    4.023406655e-05    0.000000000e+00    0.000000000e+00    0.000000000e+00    0.000000000e+00
       57822389    2.469798028e-01   -9.705283046e-01    8.091796190e-05    4.975311458e-05    0.000000000e+00    0.000000000e+00    0.000000000e+00    0.000000000e+00
       59384886    2.136548311e-01   -9.794580340e-01    7.805507630e-05    6.214994937e-05    0.000000000e+00    0.000000000e+00    0.000000000e+00    0.000000000e+00
       60947383    1.806737483e-01   -9.863360524e-01    5.392637104e-05    5.530100316e-05    0.000000000e+00    0.000000000e+00    0.000000000e+00    0.000000000e+00
       62509880    1.476387233e-01   -9.925715327e-01    6.373319775e-05    5.029980093e-05    0.000000000e+00    0.000000000e+00    0.000000000e+00    0.000000000e+00
       64072377    1.146654785e-01   -9.974886179e-01    6.758142263e-05   -4.082918167e-06    0.000000000e+00    0.000000000e+00    0.000000000e+00    0.000000000e+00
       65634874    8.125448972e-02   -1.001232386e+00    5.744956434e-05    5.601905286e-06    0.000000000e+00    0.000000000e+00    0.000000000e+00    0.000000000e+00
       67197371    4.837175086e-02   -1.004350901e+00    6.440002471e-05    5.647726357e-05    0.000000000e+00    0.000000000e+00    0.000000000e+00    0.000000000e+00
       68759868    1.491647772e-02   -1.006016850e+00    6.184261292e-05    1.476146281e-05    0.000000000e+00    0.000000000e+00    0.000000000e+00    0.000000000e+00
       70322365   -1.881423779e-02   -1.006120443e+00    7.413607091e-05    3.166776150e-05    0.000000000e+00    0.000000000e+00    0.000000000e+00    0.000000000e+00
       71884862   -5.172758177e-02   -1.005987763e+00    7.598008960e-05   -6.629154086e-06    0.000000000e+00    0.000000000e+00    0.000000000e+00    0.000000000e+00
       73447359   -8.545967937e-02   -1.004481673e+00    8.300598711e-05   -2.476386726e-05    0.000000000e+00    0.000000000e+00    0.000000000e+00    0.000000000e+00
       75009856   -1.182754114e-01   -1.001770377e+00    5.722977221e-05    1.895148307e-05    0.000000000e+00    0.000000000e+00    0.000000000e+00    0.000000000e+00
       76572353   -1.504170299e-01   -9.983950853e-01    7.051415741e-05    4.168599844e-06    0.000000000e+00    0.000000000e+00    0.000000000e+00    0.000000000e+00
       78134850   -1.835310161e-01   -9.940080047e-01    6.237439811e-05    1.474749297e-05    0.000000000e+00    0.000000000e+00    0.000000000e+00    0.000000000e+00
       79697347   -2.147203237e-01   -9.876407385e-01    6.688199937e-05    2.505071461e-05    0.000000000e+00    0.000000000e+00    0.000000000e+00    0.000000000e+00
       81259844   -2.473887652e-01   -9.809427857e-01    6.335880607e-05    5.229655653e-05    0.000000000e+00    0.000000000e+00    0.000000000e+00    0.000000000e+00
       82822341   -2.790105343e-01   -9.733071923e-01    4.827231169e-05    3.624893725e-05    0.000000000e+00    0.000000000e+00    0.000000000e+00    0.000000000e+00
       84384838   -3.103811145e-01   -9.647333026e-01    7.077679038e-05   -1.663342118e-06    0.000000000e+00    0.000000000e+00    0.000000000e+00    0.000000000e+00
       85947335   -3.411934972e-01   -9.549368620e-01    7.657799870e-05   -1.703109592e-05    0.000000000e+00    0.000000000e+00    0.000000000e+00    0.000000000e+00
       87509832   -3.718975782e-01   -9.444513321e-01    1.106811687e-04    1.523457468e-05    0.000000000e+00    0.000000000e+00    0.000000000e+00    0.000000000e+00
       89072329   -4.019294381e-01   -9.326731563e-01    1.015746966e-04   -2.081226557e-05    0.000000000e+00    0.000000000e+00    0.000000000e+00    0.000000000e+00
       90634826   -4.316824675e-01   -9.196814895e-01    8.405838162e-05   -5.961395800e-06    0.000000000e+00    0.000000000e+00    0.000000000e+00    0.000000000e+00
       92197323   -4.599230886e-01   -9.066450596e-01    9.071081877e-05   -1.423712820e-05    0.000000000e+00    0.000000000e+00    0.000000000e+00    0.000000000e+00
       93759820   -4.893251359e-01   -8.923354149e-01    1.218114048e-04   -8.904375136e-06    0.000000000e+00    0.000000000e+00    0.000000000e+00    0.000000000e+00
       95322317   -5.174617767e-01   -8.772525787e-01    9.372271597e-05   -4.394073039e-05    0.000000000e+00    0.000000000e+00    0.000000000e+00    0.000000000e+00
       96884814   -5.443386436e-01   -8.609889746e-01    7.938127965e-05   -6.997026503e-06    0.000000000e+00    0.000000000e+00    0.000000000e+00    0.000000000e+00
       98447311   -5.723028183e-01   -8.442902565e-01    1.130858436e-04    2.208352089e-05    0.000000000e+00    0.000000000e+00    0.000000000e+00    0.000000000e+00
      100009808   -5.757123828e-01   -7.642234564e-01    1.047160476e-04   -2.746749669e-05    0.000000000e+00    0.000000000e+00    0.000000000e+00    0.000000000e+00
      101572305   -5.981124640e-01   -7.471709847e-01    9.045284241e-05   -1.558009535e-05    0.000000000e+00    0.000000000e+00    0.000000000e+00    0.000000000e+00
      103134802   -6.202546358e-01   -7.288098335e-01    8.608587086e-05   -2.477411181e-05    0.000000000e+00    0.000000000e+00    0.000000000e+00    0.000000000e+00
      104697299   -6.415484548e-01   -7.097633481e-01    9.303446859e-05   -4.986301064e-05    0.000000000e+00    0.000000000e+00    0.000000000e+00    0.000000000e+00
      106259796   -6.622880101e-01   -6.903845668e-01    8.513685316e-05   -3.907643259e-05    0.000000000e+00    0.000000000e+00    0.000000000e+00    0.000000000e+00
      107822293   -6.824530363e-01   -6.702679992e-01    1.051118597e-04   -5.166791379e-05    0.000000000e+00    0.000000000e+00    0.000000000e+00    0.000000000e+00
      109384790   -7.017360926e-01   -6.498356462e-01    7.164943963e-05   -4.377495497e-05    0.000000000e+00    0.000000000e+00    0.000000000e+00    0.000000000e+00
      110947287   -7.199169993e-01   -6.281149387e-01    1.025861129e-04   -4.611816257e-05    0.000000000e+00    0.000000000e+00    0.000000000e+00    0.000000000e+00
      112509784   -7.386375666e-01   -6.070467830e-01    8.964166045e-05   -7.817335427e-05    0.000000000e+00    0.000000000e+00    0.000000000e+00    0.000000000e+00
      114072281   -7.561522722e-01   -5.851958990e-01    8.737947792e-05   -4.216562957e-05    0.000000000e+00    0.000000000e+00    0.000000000e+00    0.000000000e+00
      115634778   -7.730311155e-01   -5.626714826e-01    7.987115532e-05   -4.209764302e-05    0.000000000e+00    0.000000000e+00    0.000000000e+00    0.000000000e+00
      117197275   -7.893112898e-01   -5.396452546e-01    8.346885443e-05   -7.565598935e-05    0.000000000e+00    0.000000000e+00    0.000000000e+00    0.000000000e+00
      118759772   -8.044868112e-01   -5.165941715e-01    9.768083692e-05   -5.807075649e-05    0.000000000e+00    0.000000000e+00    0.000000000e+00    0.000000000e+00
      120322269   -8.198249340e-01   -4.928419292e-01    7.857289165e-05   -2.245604992e-05    0.000000000e+00    0.000000000e+00    0.000000000e+00    0.000000000e+00
      121884766   -8.338979483e-01   -4.688614905e-01    1.017395407e-04   -6.953068078e-05    0.000000000e+00    0.000000000e+00    0.000000000e+00    0.000000000e+00
      123447263   -8.474522233e-01   -4.440060854e-01    7.934682071e-05   -5.676783621e-05    0.000000000e+00    0.000000000e+00    0.000000000e+00    0.000000000e+00
      125009760   -8.603383899e-01   -4.191762805e-01    8.031167090e-05   -8.411239833e-05    0.000000000e+00    0.000000000e+00    0.000000000e+00    0.000000000e+00
      126572257   -8.723455071e-01   -3.938776851e-01    1.248754561e-04   -8.644256741e-05    0.000000000e+00    0.000000000e+00    0.000000000e+00    0.000000000e+00
      128134754   -8.839223981e-01   -3.687128127e-01    9.516440332e-05   -5.934853107e-05    0.000000000e+00    0.000000000e+00    0.000000000e+00    0.000000000e+00
      129697251   -8.950932026e-01   -3.431949317e-01    8.484441787e-05   -1.183403656e-04    0.000000000e+00    0.000000000e+00    0.000000000e+00    0.000000000e+00
      131259748   -9.046820402e-01   -3.167488277e-01    7.526949048e-05   -9.113922715e-05    0.000000000e+00    0.000000000e+00    0.000000000e+00    0.000000000e+00
      132822245   -9.135516286e-01   -2.898179889e-01    1.063961536e-04   -7.241312414e-05    0.000000000e+00    0.000000000e+00    0.000000000e+00    0.000000000e+00
      134384742   -9.220429063e-01   -2.630118430e-01    9.007938206e-05   -8.976738900e-05    0.000000000e+00    0.000000000e+00    0.000000000e+00    0.000000000e+00
      135947239   -9.295487404e-01   -2.360887975e-01    8.488353342e-05   -6.676837802e-05    0.000000000e+00    0.000000000e+00    0.000000000e+00    0.000000000e+00
      137509736   -9.370541573e-01   -2.088271677e-01    6.259139627e-05   -6.371643394e-05    0.000000000e+00    0.000000000e+00    0.000000000e+00    0.000000000e+00
      139072233   -9.432817698e-01   -1.813863963e-01    7.719825953e-05   -1.085903496e-04    0.000000000e+00    0.000000000e+00    0.000000000e+00    0.000000000e+00
      140634730   -9.487830997e-01   -1.534321308e-01    8.322112262e-05   -1.038722694e-04    0.000000000e+00    0.000000000e+00    0.000000000e+00    0.000000000e+00
      142197227   -9.534903169e-01   -1.256380230e-01    6.352644414e-05   -1.462548971e-04    0.000000000e+00    0.000000000e+00    0.000000000e+00    0.000000000e+00
      143759724   -9.570900798e-01   -9.766872972e-02    8.567143232e-05   -1.266812906e-04    0.000000000e+00    0.000000000e+00    0.000000000e+00    0.000000000e+00
      145322221   -9.594898820e-01   -6.906476617e-02    8.616317064e-05   -7.350090891e-05    0.000000000e+00    0.000000000e+00    0.000000000e+00    0.000000000e+00
      146884718   -9.619542956e-01   -4.039974138e-02    7.006619126e-05   -1.445775852e-04    0.000000000e+00    0.000000000e+00    0.000000000e+00    0.000000000e+00
      148447215   -9.632329941e-01   -1.166476961e-02    1.233173534e-04   -1.129498705e-04    0.000000000e+00    0.000000000e+00    0.000000000e+00    0.000000000e+00
      150009712   -9.635087848e-01    1.673326455e-02    6.919167936e-05   -9.090546519e-05    0.000000000e+00    0.000000000e+00    0.000000000e+00    0.000000000e+00
      151572209   -9.627552629e-01    4.561353847e-02    9.325891733e-05   -1.460919157e-04    0.000000000e+00    0.000000000e+00    0.000000000e+00    0.000000000e+00
      153134706   -9.619542956e-01    7.438716292e-02    3.739725798e-05   -1.259231940e-04    0.000000000e+00    0.000000000e+00    0.000000000e+00    0.000000000e+00
      154697203   -9.594287276e-01    1.034101620e-01    6.465613842e-05   -8.550751954e-05    0.000000000e+00    0.000000000e+00    0.000000000e+00    0.000000000e+00
      156259700   -9.567240477e-01    1.323761046e-01    7.305294275e-05   -1.275967807e-04    0.000000000e+00    0.000000000e+00    0.000000000e+00    0.000000000e+00
      157822197   -9.518601298e-01    1.613805443e-01    7.518380880e-05   -1.263348386e-04    0.000000000e+00    0.000000000e+00    0.000000000e+00    0.000000000e+00
      159384694   -9.475635886e-01    1.903364360e-01    5.342904478e-05   -1.230072230e-04    0.000000000e+00    0.000000000e+00    0.000000000e+00    0.000000000e+00
      160947191   -9.409829378e-01    2.193035334e-01    6.090942770e-05   -1.538768411e-04    0.000000000e+00    0.000000000e+00    0.000000000e+00    0.000000000e+00
      162509688   -9.344696999e-01    2.476170361e-01    3.709923476e-05   -1.315725967e-04    0.000000000e+00    0.000000000e+00    0.000000000e+00    0.000000000e+00
      164072185   -9.265089035e-01    2.765482664e-01    7.363967597e-05   -1.215497032e-04    0.000000000e+00    0.000000000e+00    0.000000000e+00    0.000000000e+00
      165634682   -9.186028242e-01    3.047052920e-01    4.010088742e-05   -1.649726182e-04    0.000000000e+00    0.000000000e+00    0.000000000e+00    0.000000000e+00
      167197179   -9.093319178e-01    3.332928419e-01    5.416572094e-05   -1.943241805e-04    0.000000000e+00    0.000000000e+00    0.000000000e+00    0.000000000e+00
      168759676   -8.991528749e-01    3.615813255e-01    6.190128624e-05   -1.557143405e-04    0.000000000e+00    0.000000000e+00    0.000000000e+00    0.000000000e+00
      170322173   -8.871766925e-01    3.891679943e-01    2.672523260e-05   -1.631155610e-04    0.000000000e+00    0.000000000e+00    0.000000000e+00    0.000000000e+00
      171884670   -8.748841882e-01    4.168371856e-01    4.239380360e-05   -1.463387161e-04    0.000000000e+00    0.000000000e+00    0.000000000e+00    0.000000000e+00
      173447167   -8.614622951e-01    4.442966878e-01   -1.278705895e-06   -9.532924742e-05    0.000000000e+00    0.000000000e+00    0.000000000e+00    0.000000000e+00
      175009664   -8.470637202e-01    4.713633657e-01    4.533398896e-05   -1.506432891e-04    0.000000000e+00    0.000000000e+00    0.000000000e+00    0.000000000e+00
      176572161   -8.323271275e-01    4.981202483e-01    1.826975495e-05   -1.803413033e-04    0.000000000e+00    0.000000000e+00    0.000000000e+00    0.000000000e+00
      178134658   -8.157586455e-01    5.246528387e-01    4.367250949e-05   -2.003908157e-04    0.000000000e+00    0.000000000e+00    0.000000000e+00    0.000000000e+00
      179697155   -7.992009521e-01    5.503842235e-01    1.651141793e-05   -1.723831519e-04    0.000000000e+00    0.000000000e+00    0.000000000e+00    0.000000000e+00
      181259652   -7.809566855e-01    5.757766962e-01    1.693982631e-05   -1.888256520e-04    0.000000000e+00    0.000000000e+00    0.000000000e+00    0.000000000e+00
