! NanoVNA-App
! Date: 2025-10-30 20:58:56
! Start: 10kHz Stop: 5GHz Points: 3201
! S-Parameter data: F S11 S21 S12 S22
# Hz S RI R 50
!     Frequency           S11_Real           S11_Imag           S21_Real           S21_Imag           S12_Real           S12_Imag           S22_Real           S22_Imag
          10000    1.002126575e+00   -3.934120759e-04   -4.858709872e-06   -6.742775440e-07    0.000000000e+00    0.000000000e+00    0.000000000e+00    0.000000000e+00
        1572497    9.945356250e-01   -3.765440732e-02    7.280148566e-06   -2.222135663e-06    0.000000000e+00    0.000000000e+00    0.000000000e+00    0.000000000e+00
        3134994    9.935920835e-01   -7.503223419e-02   -5.724839866e-06   -3.425404429e-06    0.000000000e+00    0.000000000e+00    0.000000000e+00    0.000000000e+00
        4697491    9.897387028e-01   -1.131365448e-01    1.683458686e-05   -1.021753997e-05    0.000000000e+00    0.000000000e+00    0.000000000e+00    0.000000000e+00
        6259988    9.846630692e-01   -1.504359245e-01    9.628012776e-06   -1.594424248e-05    0.000000000e+00    0.000000000e+00    0.000000000e+00    0.000000000e+00
        7822485    9.775782824e-01   -1.862863004e-01    2.682115883e-05    1.620128751e-05    0.000000000e+00    0.000000000e+00    0.000000000e+00    0.000000000e+00
        9384982    9.690613151e-01   -2.224331498e-01   -4.936009645e-08    2.252683043e-05    0.000000000e+00    0.000000000e+00    0.000000000e+00    0.000000000e+00
       10947479    9.601374269e-01   -2.581304908e-01    9.983778000e-07   -2.039596438e-07    0.000000000e+00    0.000000000e+00    0.000000000e+00    0.000000000e+00
       12509976    9.496384859e-01   -2.933431268e-01    1.730676740e-05    3.806035966e-05    0.000000000e+00    0.000000000e+00    0.000000000e+00    0.000000000e+00
       14072473    9.383623004e-01   -3.277961314e-01   -2.378597856e-06    4.069879651e-07    0.000000000e+00    0.000000000e+00    0.000000000e+00    0.000000000e+00
       15634970    9.255808592e-01   -3.621511161e-01   -1.807324588e-05    4.690885544e-05    0.000000000e+00    0.000000000e+00    0.000000000e+00    0.000000000e+00
       17197467    9.118577838e-01   -3.963671923e-01   -3.818422556e-06    2.244487405e-07    0.000000000e+00    0.000000000e+00    0.000000000e+00    0.000000000e+00
       18759964    8.967074156e-01   -4.294499457e-01   -1.168809831e-06    2.004113048e-05    0.000000000e+00    0.000000000e+00    0.000000000e+00    0.000000000e+00
       20322461    8.805299997e-01   -4.623194933e-01   -2.818740904e-05    4.880130291e-05    0.000000000e+00    0.000000000e+00    0.000000000e+00    0.000000000e+00
       21884958    8.626633286e-01   -4.939636886e-01    3.139302135e-05    5.179550499e-05    0.000000000e+00    0.000000000e+00    0.000000000e+00    0.000000000e+00
       23447455    8.442001343e-01   -5.254630446e-01    2.241227776e-05    2.843607217e-05    0.000000000e+00    0.000000000e+00    0.000000000e+00    0.000000000e+00
       25009952    8.248655200e-01   -5.557918549e-01    3.184471279e-05    1.117587090e-06    0.000000000e+00    0.000000000e+00    0.000000000e+00    0.000000000e+00
       26572449    8.037076592e-01   -5.859030485e-01    7.849186659e-06    3.970135003e-05    0.000000000e+00    0.000000000e+00    0.000000000e+00    0.000000000e+00
       28134946    7.823420763e-01   -6.148863435e-01    4.797335714e-05    7.728114724e-06    0.000000000e+00    0.000000000e+00    0.000000000e+00    0.000000000e+00
       29697443    7.597869039e-01   -6.429837942e-01    4.880316556e-05    2.097245306e-05    0.000000000e+00    0.000000000e+00    0.000000000e+00    0.000000000e+00
       31259940    7.363751531e-01   -6.701088548e-01    2.376828343e-05    1.496728510e-05    0.000000000e+00    0.000000000e+00    0.000000000e+00    0.000000000e+00
       32822437    7.119107246e-01   -6.958639026e-01   -2.305023372e-06    4.057586193e-05    0.000000000e+00    0.000000000e+00    0.000000000e+00    0.000000000e+00
       34384934    6.866930127e-01   -7.213094831e-01    8.848495781e-06    1.503154635e-05    0.000000000e+00    0.000000000e+00    0.000000000e+00    0.000000000e+00
       35947431    6.609528661e-01   -7.456454039e-01    3.332644701e-05    4.298239946e-05    0.000000000e+00    0.000000000e+00    0.000000000e+00    0.000000000e+00
       37509928    6.345648766e-01   -7.691614628e-01    2.031866461e-05    1.406949013e-05    0.000000000e+00    0.000000000e+00    0.000000000e+00    0.000000000e+00
       39072425    6.066181064e-01   -7.912014723e-01   -3.975816071e-06   -8.244067430e-06    0.000000000e+00    0.000000000e+00    0.000000000e+00    0.000000000e+00
       40634922    5.782989264e-01   -8.128055930e-01    2.933666110e-05    3.644637764e-05    0.000000000e+00    0.000000000e+00    0.000000000e+00    0.000000000e+00
       42197419    5.494530201e-01   -8.336000443e-01    2.877041698e-05    3.517232835e-05    0.000000000e+00    0.000000000e+00    0.000000000e+00    0.000000000e+00
       43759916    5.201599002e-01   -8.521593213e-01    2.872012556e-05    5.387794226e-05    0.000000000e+00    0.000000000e+00    0.000000000e+00    0.000000000e+00
       45322413    4.898556173e-01   -8.700496554e-01   -5.289912224e-07    4.019029438e-05    0.000000000e+00    0.000000000e+00    0.000000000e+00    0.000000000e+00
       46884910    4.591727853e-01   -8.868476748e-01    4.218332469e-05    3.806781024e-05    0.000000000e+00    0.000000000e+00    0.000000000e+00    0.000000000e+00
       48447407    4.290361702e-01   -9.030515552e-01    6.798934191e-05    3.915838897e-05    0.000000000e+00    0.000000000e+00    0.000000000e+00    0.000000000e+00
       50009904    3.976206481e-01   -9.182185531e-01    5.137827247e-05    3.929808736e-05    0.000000000e+00    0.000000000e+00    0.000000000e+00    0.000000000e+00
       51572401    3.656038642e-01   -9.314658046e-01    5.338992923e-05    2.164207399e-05    0.000000000e+00    0.000000000e+00    0.000000000e+00    0.000000000e+00
       53134898    3.335446119e-01   -9.442885518e-01    7.565505803e-05    5.515199155e-05    0.000000000e+00    0.000000000e+00    0.000000000e+00    0.000000000e+00
       54697395    3.009969592e-01   -9.556370378e-01    5.836784840e-05    4.295445979e-05    0.000000000e+00    0.000000000e+00    0.000000000e+00    0.000000000e+00
       56259892    2.682662308e-01   -9.657509327e-01    3.953091800e-05    3.003515303e-05    0.000000000e+00    0.000000000e+00    0.000000000e+00    0.000000000e+00
       57822389    2.352901101e-01   -9.749957919e-01    8.823629469e-05    7.097795606e-05    0.000000000e+00    0.000000000e+00    0.000000000e+00    0.000000000e+00
       59384886    2.023499310e-01   -9.823687077e-01    5.960650742e-05    3.714114428e-05    0.000000000e+00    0.000000000e+00    0.000000000e+00    0.000000000e+00
       60947383    1.685310602e-01   -9.896224141e-01    4.866346717e-05    6.387941539e-06    0.000000000e+00    0.000000000e+00    0.000000000e+00    0.000000000e+00
       62509880    1.349184811e-01   -9.956579804e-01    6.597861648e-05    4.199612886e-05    0.000000000e+00    0.000000000e+00    0.000000000e+00    0.000000000e+00
       64072377    1.015771553e-01   -1.000598431e+00    5.787145346e-05    5.749054253e-06    0.000000000e+00    0.000000000e+00    0.000000000e+00    0.000000000e+00
       65634874    6.788582355e-02   -1.003913999e+00    4.317983985e-05    2.651382238e-05    0.000000000e+00    0.000000000e+00    0.000000000e+00    0.000000000e+00
       67197371    3.442905098e-02   -1.006414890e+00    6.257835776e-05    1.092068851e-05    0.000000000e+00    0.000000000e+00    0.000000000e+00    0.000000000e+00
       68759868    3.807721660e-04   -1.008094311e+00    6.853509694e-05    1.333374530e-05    0.000000000e+00    0.000000000e+00    0.000000000e+00    0.000000000e+00
       70322365   -3.314881772e-02   -1.007996798e+00    8.421763778e-05    6.012618542e-05    0.000000000e+00    0.000000000e+00    0.000000000e+00    0.000000000e+00
       71884862   -6.639866531e-02   -1.007242203e+00    5.835667253e-05    3.251340240e-05    0.000000000e+00    0.000000000e+00    0.000000000e+00    0.000000000e+00
       73447359   -9.991827607e-02   -1.005018473e+00    1.215022057e-04    3.921240568e-05    0.000000000e+00    0.000000000e+00    0.000000000e+00    0.000000000e+00
       75009856   -1.327460557e-01   -1.002201796e+00    5.362462252e-05    1.320242882e-05    0.000000000e+00    0.000000000e+00    0.000000000e+00    0.000000000e+00
       76572353   -1.657738388e-01   -9.979372025e-01    6.106775254e-05    1.780223101e-05    0.000000000e+00    0.000000000e+00    0.000000000e+00    0.000000000e+00
       78134850   -1.981354207e-01   -9.924069643e-01    6.987433881e-05    7.347203791e-06    0.000000000e+00    0.000000000e+00    0.000000000e+00    0.000000000e+00
       79697347   -2.307949513e-01   -9.863684773e-01    1.091947779e-04    3.208406270e-06    0.000000000e+00    0.000000000e+00    0.000000000e+00    0.000000000e+00
       81259844   -2.628884017e-01   -9.786886573e-01    7.759965956e-05    3.453344107e-06    0.000000000e+00    0.000000000e+00    0.000000000e+00    0.000000000e+00
       82822341   -2.949942946e-01   -9.706935287e-01    8.975248784e-05   -1.673772931e-05    0.000000000e+00    0.000000000e+00    0.000000000e+00    0.000000000e+00
       84384838   -3.263434470e-01   -9.614133835e-01    7.879454643e-05    7.089227438e-06    0.000000000e+00    0.000000000e+00    0.000000000e+00    0.000000000e+00
       85947335   -3.574379086e-01   -9.515655637e-01    1.041702926e-04    1.733563840e-05    0.000000000e+00    0.000000000e+00    0.000000000e+00    0.000000000e+00
       87509832   -3.883342445e-01   -9.400745630e-01    1.285653561e-04   -1.256261021e-05    0.000000000e+00    0.000000000e+00    0.000000000e+00    0.000000000e+00
       89072329   -4.176536798e-01   -9.278815985e-01    1.031961292e-04    2.889893949e-06    0.000000000e+00    0.000000000e+00    0.000000000e+00    0.000000000e+00
       90634826   -4.482257068e-01   -9.150273204e-01    9.399838746e-05    1.704320312e-06    0.000000000e+00    0.000000000e+00    0.000000000e+00    0.000000000e+00
       92197323   -4.766453803e-01   -9.006226659e-01    9.551644325e-05    1.080706716e-05    0.000000000e+00    0.000000000e+00    0.000000000e+00    0.000000000e+00
       93759820   -5.063119531e-01   -8.859313130e-01    8.255522698e-05   -4.623457789e-05    0.000000000e+00    0.000000000e+00    0.000000000e+00    0.000000000e+00
       95322317   -5.338816047e-01   -8.704140782e-01    8.323974907e-05   -4.230067134e-06    0.000000000e+00    0.000000000e+00    0.000000000e+00    0.000000000e+00
       96884814   -5.609276295e-01   -8.535371423e-01    1.114597544e-04    2.310611308e-06    0.000000000e+00    0.000000000e+00    0.000000000e+00    0.000000000e+00
       98447311   -5.879687667e-01   -8.358685374e-01    7.792469114e-05   -1.348275691e-05    0.000000000e+00    0.000000000e+00    0.000000000e+00    0.000000000e+00
      100009808   -5.903513432e-01   -7.554644346e-01    9.492971003e-05   -6.486661732e-06    0.000000000e+00    0.000000000e+00    0.000000000e+00    0.000000000e+00
      101572305   -6.127340794e-01   -7.377018929e-01    1.217555255e-04   -1.805461943e-05    0.000000000e+00    0.000000000e+00    0.000000000e+00    0.000000000e+00
      103134802   -6.344041824e-01   -7.186032534e-01    1.122094691e-04   -3.886315972e-05    0.000000000e+00    0.000000000e+00    0.000000000e+00    0.000000000e+00
      104697299   -6.552464366e-01   -6.985937357e-01    9.370222688e-05   -2.557504922e-05    0.000000000e+00    0.000000000e+00    0.000000000e+00    0.000000000e+00
      106259796   -6.760822535e-01   -6.789881587e-01    4.603993148e-05   -2.922117710e-05    0.000000000e+00    0.000000000e+00    0.000000000e+00    0.000000000e+00
      107822293   -6.960442066e-01   -6.591857076e-01    1.091938466e-04   -4.822388291e-05    0.000000000e+00    0.000000000e+00    0.000000000e+00    0.000000000e+00
      109384790   -7.153415084e-01   -6.379926205e-01    1.130187884e-04   -4.045944661e-05    0.000000000e+00    0.000000000e+00    0.000000000e+00    0.000000000e+00
      110947287   -7.333554029e-01   -6.160039306e-01    8.974410594e-05   -3.081560135e-05    0.000000000e+00    0.000000000e+00    0.000000000e+00    0.000000000e+00
      112509784   -7.520210743e-01   -5.944989324e-01    1.038536429e-04   -3.222003579e-05    0.000000000e+00    0.000000000e+00    0.000000000e+00    0.000000000e+00
      114072281   -7.691477537e-01   -5.720686913e-01    1.382231712e-04   -5.909986794e-05    0.000000000e+00    0.000000000e+00    0.000000000e+00    0.000000000e+00
      115634778   -7.858601809e-01   -5.491686463e-01    9.702518582e-05   -4.245340824e-05    0.000000000e+00    0.000000000e+00    0.000000000e+00    0.000000000e+00
      117197275   -8.017931581e-01   -5.259341002e-01    1.037744805e-04   -6.770342588e-05    0.000000000e+00    0.000000000e+00    0.000000000e+00    0.000000000e+00
      118759772   -8.171970844e-01   -5.024044514e-01    6.545800716e-05   -6.363075227e-05    0.000000000e+00    0.000000000e+00    0.000000000e+00    0.000000000e+00
      120322269   -8.313997388e-01   -4.777660668e-01    1.179855317e-04   -8.742976934e-05    0.000000000e+00    0.000000000e+00    0.000000000e+00    0.000000000e+00
      121884766   -8.459817171e-01   -4.537832141e-01    9.168591350e-05   -8.780509233e-05    0.000000000e+00    0.000000000e+00    0.000000000e+00    0.000000000e+00
      123447263   -8.591031432e-01   -4.288199544e-01    1.001022756e-04   -5.827564746e-05    0.000000000e+00    0.000000000e+00    0.000000000e+00    0.000000000e+00
      125009760   -8.715552092e-01   -4.030169547e-01    7.100496441e-05   -8.132681251e-05    0.000000000e+00    0.000000000e+00    0.000000000e+00    0.000000000e+00
      126572257   -8.836227655e-01   -3.777126968e-01    9.622704238e-05   -5.767308176e-05    0.000000000e+00    0.000000000e+00    0.000000000e+00    0.000000000e+00
      128134754   -8.946553469e-01   -3.517226875e-01    9.424146265e-05   -8.886121213e-05    0.000000000e+00    0.000000000e+00    0.000000000e+00    0.000000000e+00
      129697251   -9.041863680e-01   -3.249585032e-01    1.045065001e-04   -7.120240480e-05    0.000000000e+00    0.000000000e+00    0.000000000e+00    0.000000000e+00
      131259748   -9.144707322e-01   -2.985470891e-01    8.056033403e-05   -1.118658110e-04    0.000000000e+00    0.000000000e+00    0.000000000e+00    0.000000000e+00
      132822245   -9.228364229e-01   -2.713286579e-01    1.019686460e-04   -6.092246622e-05    0.000000000e+00    0.000000000e+00    0.000000000e+00    0.000000000e+00
      134384742   -9.312908053e-01   -2.446033806e-01    9.471923113e-05   -6.953068078e-05    0.000000000e+00    0.000000000e+00    0.000000000e+00    0.000000000e+00
      135947239   -9.384722114e-01   -2.170867324e-01    9.953789413e-05   -7.842201740e-05    0.000000000e+00    0.000000000e+00    0.000000000e+00    0.000000000e+00
      137509736   -9.452679753e-01   -1.890411526e-01    7.750652730e-05   -7.960852236e-05    0.000000000e+00    0.000000000e+00    0.000000000e+00    0.000000000e+00
      139072233   -9.507464170e-01   -1.613374054e-01    1.094406471e-04   -1.111943275e-04    0.000000000e+00    0.000000000e+00    0.000000000e+00    0.000000000e+00
      140634730   -9.559753537e-01   -1.332152486e-01    9.330455214e-05   -1.197559759e-04    0.000000000e+00    0.000000000e+00    0.000000000e+00    0.000000000e+00
      142197227   -9.589911103e-01   -1.044704169e-01    8.188094944e-05   -8.614454418e-05    0.000000000e+00    0.000000000e+00    0.000000000e+00    0.000000000e+00
      143759724   -9.634565711e-01   -7.627817988e-02    7.264688611e-05   -1.272866502e-04    0.000000000e+00    0.000000000e+00    0.000000000e+00    0.000000000e+00
      145322221   -9.651302695e-01   -4.760146514e-02    7.318425924e-05   -8.398480713e-05    0.000000000e+00    0.000000000e+00    0.000000000e+00    0.000000000e+00
      146884718   -9.667569995e-01   -1.868743449e-02    5.460157990e-05   -1.149736345e-04    0.000000000e+00    0.000000000e+00    0.000000000e+00    0.000000000e+00
      148447215   -9.673643112e-01    1.051254291e-02    7.248949260e-05   -1.134471968e-04    0.000000000e+00    0.000000000e+00    0.000000000e+00    0.000000000e+00
      150009712   -9.673577547e-01    3.926670551e-02    7.266364992e-05   -1.264177263e-04    0.000000000e+00    0.000000000e+00    0.000000000e+00    0.000000000e+00
      151572209   -9.660277963e-01    6.866990030e-02    8.765794337e-05   -1.214211807e-04    0.000000000e+00    0.000000000e+00    0.000000000e+00    0.000000000e+00
      153134706   -9.642251730e-01    9.787832201e-02    1.002065837e-04   -1.436248422e-04    0.000000000e+00    0.000000000e+00    0.000000000e+00    0.000000000e+00
      154697203   -9.613885880e-01    1.268808246e-01    4.825461656e-05   -1.098858193e-04    0.000000000e+00    0.000000000e+00    0.000000000e+00    0.000000000e+00
      156259700   -9.574520588e-01    1.562785655e-01    9.093619883e-05   -1.311451197e-04    0.000000000e+00    0.000000000e+00    0.000000000e+00    0.000000000e+00
      157822197   -9.531908035e-01    1.853076518e-01    7.022544742e-05   -1.365011558e-04    0.000000000e+00    0.000000000e+00    0.000000000e+00    0.000000000e+00
      159384694   -9.472901821e-01    2.147332579e-01    4.151370376e-05   -1.487238333e-04    0.000000000e+00    0.000000000e+00    0.000000000e+00    0.000000000e+00
      160947191   -9.415035248e-01    2.437194735e-01    7.640291005e-05   -1.542521641e-04    0.000000000e+00    0.000000000e+00    0.000000000e+00    0.000000000e+00
      162509688   -9.333677292e-01    2.727544606e-01    3.611017019e-05   -1.408020034e-04    0.000000000e+00    0.000000000e+00    0.000000000e+00    0.000000000e+00
      164072185   -9.245685339e-01    3.014035523e-01    6.584171206e-05   -1.508826390e-04    0.000000000e+00    0.000000000e+00    0.000000000e+00    0.000000000e+00
      165634682   -9.152981043e-01    3.301745057e-01    2.176314592e-05   -1.798346639e-04    0.000000000e+00    0.000000000e+00    0.000000000e+00    0.000000000e+00
      167197179   -9.061228037e-01    3.589997292e-01    2.949405462e-05   -1.137694344e-04    0.000000000e+00    0.000000000e+00    0.000000000e+00    0.000000000e+00
      168759676   -8.944682479e-01    3.871681988e-01   -7.588416338e-06   -1.558139920e-04    0.000000000e+00    0.000000000e+00    0.000000000e+00    0.000000000e+00
      170322173   -8.824436069e-01    4.154152274e-01    1.688580960e-05   -1.534754410e-04    0.000000000e+00    0.000000000e+00    0.000000000e+00    0.000000000e+00
      171884670   -8.687443137e-01    4.428298175e-01    2.645421773e-05   -2.023279667e-04    0.000000000e+00    0.000000000e+00    0.000000000e+00    0.000000000e+00
      173447167   -8.545958400e-01    4.704090059e-01    4.266854376e-05   -1.589311287e-04    0.000000000e+00    0.000000000e+00    0.000000000e+00    0.000000000e+00
      175009664   -8.400697708e-01    4.978124201e-01    5.120225251e-05   -1.313146204e-04    0.000000000e+00    0.000000000e+00    0.000000000e+00    0.000000000e+00
      176572161   -8.240194917e-01    5.242840052e-01    3.273505718e-05   -1.677302644e-04    0.000000000e+00    0.000000000e+00    0.000000000e+00    0.000000000e+00
      178134658   -8.069815636e-01    5.505596399e-01    3.701075912e-06   -1.686476171e-04    0.000000000e+00    0.000000000e+00    0.000000000e+00    0.000000000e+00
      179697155   -7.888984680e-01    5.766703486e-01    1.426786184e-05   -1.821527258e-04    0.000000000e+00    0.000000000e+00    0.000000000e+00    0.000000000e+00
      181259652   -7.699693441e-01    6.020303965e-01    3.461726010e-06   -1.587960869e-04    0.000000000e+00    0.000000000e+00    0.000000000e+00    0.000000000e+00
