! NanoVNA-App
! Date: 2025-10-30 21:12:01
! Start: 10kHz Stop: 5GHz Points: 3201
! S-Parameter data: F S11 S21 S12 S22
# Hz S RI R 50
!     Frequency           S11_Real           S11_Imag           S21_Real           S21_Imag           S12_Real           S12_Imag           S22_Real           S22_Imag
          10000    1.001143575e+00   -4.914859310e-04    3.014691174e-06   -1.543201506e-06    0.000000000e+00    0.000000000e+00    0.000000000e+00    0.000000000e+00
        1572497    9.945904016e-01   -3.759792820e-02   -2.999231219e-05    3.659632057e-05    0.000000000e+00    0.000000000e+00    0.000000000e+00    0.000000000e+00
        3134994    9.937029481e-01   -7.480208576e-02   -3.418140113e-05    3.146938980e-06    0.000000000e+00    0.000000000e+00    0.000000000e+00    0.000000000e+00
        4697491    9.900370240e-01   -1.128373444e-01    3.434997052e-05    2.455711365e-05    0.000000000e+00    0.000000000e+00    0.000000000e+00    0.000000000e+00
        6259988    9.842870831e-01   -1.499986053e-01    1.998990774e-05    2.268701792e-06    0.000000000e+00    0.000000000e+00    0.000000000e+00    0.000000000e+00
        7822485    9.770597816e-01   -1.859797686e-01    9.350478649e-06    1.286342740e-05    0.000000000e+00    0.000000000e+00    0.000000000e+00    0.000000000e+00
        9384982    9.690783620e-01   -2.222633809e-01    4.327204078e-05    5.422160029e-06    0.000000000e+00    0.000000000e+00    0.000000000e+00    0.000000000e+00
       10947479    9.604279995e-01   -2.581864297e-01    1.118052751e-05    3.575254232e-05    0.000000000e+00    0.000000000e+00    0.000000000e+00    0.000000000e+00
       12509976    9.503604174e-01   -2.928647101e-01    6.834976375e-06    3.729108721e-05    0.000000000e+00    0.000000000e+00    0.000000000e+00    0.000000000e+00
       14072473    9.384155273e-01   -3.276302814e-01    1.709535718e-05    2.808123827e-05    0.000000000e+00    0.000000000e+00    0.000000000e+00    0.000000000e+00
       15634970    9.250568748e-01   -3.614213765e-01   -1.072883606e-06    3.158673644e-05    0.000000000e+00    0.000000000e+00    0.000000000e+00    0.000000000e+00
       17197467    9.118145704e-01   -3.952510059e-01    2.634245902e-05    2.876389772e-05    0.000000000e+00    0.000000000e+00    0.000000000e+00    0.000000000e+00
       18759964    8.963694572e-01   -4.289909601e-01    1.493562013e-05    2.804398537e-05    0.000000000e+00    0.000000000e+00    0.000000000e+00    0.000000000e+00
       20322461    8.803878427e-01   -4.617243111e-01    3.862753510e-05    7.811095566e-05    0.000000000e+00    0.000000000e+00    0.000000000e+00    0.000000000e+00
       21884958    8.626610637e-01   -4.931983352e-01   -2.620089799e-05    5.274079740e-05    0.000000000e+00    0.000000000e+00    0.000000000e+00    0.000000000e+00
       23447455    8.441542983e-01   -5.242837071e-01    1.377146691e-05    6.714463234e-05    0.000000000e+00    0.000000000e+00    0.000000000e+00    0.000000000e+00
       25009952    8.246296048e-01   -5.550040007e-01    5.587935448e-09    7.874239236e-05    0.000000000e+00    0.000000000e+00    0.000000000e+00    0.000000000e+00
       26572449    8.041967750e-01   -5.845079422e-01    4.687346518e-05    5.269609392e-05    0.000000000e+00    0.000000000e+00    0.000000000e+00    0.000000000e+00
       28134946    7.821853161e-01   -6.133622527e-01   -1.405365765e-05    1.161489636e-04    0.000000000e+00    0.000000000e+00    0.000000000e+00    0.000000000e+00
       29697443    7.600627542e-01   -6.415297985e-01    6.802566350e-05    7.739569992e-05    0.000000000e+00    0.000000000e+00    0.000000000e+00    0.000000000e+00
       31259940    7.369315624e-01   -6.684472561e-01    4.337448627e-05    6.318092346e-05    0.000000000e+00    0.000000000e+00    0.000000000e+00    0.000000000e+00
       32822437    7.120980620e-01   -6.941803098e-01    4.112441093e-05    7.961597294e-05    0.000000000e+00    0.000000000e+00    0.000000000e+00    0.000000000e+00
       34384934    6.876767874e-01   -7.193881869e-01    6.935652345e-05    3.135111183e-05    0.000000000e+00    0.000000000e+00    0.000000000e+00    0.000000000e+00
       35947431    6.610207558e-01   -7.443672419e-01    5.725584924e-05    5.505792797e-05    0.000000000e+00    0.000000000e+00    0.000000000e+00    0.000000000e+00
       37509928    6.349955797e-01   -7.674580812e-01    6.818491966e-05    8.706655353e-05    0.000000000e+00    0.000000000e+00    0.000000000e+00    0.000000000e+00
       39072425    6.069657207e-01   -7.898684740e-01    5.215965211e-05    9.644310921e-05    0.000000000e+00    0.000000000e+00    0.000000000e+00    0.000000000e+00
       40634922    5.791210532e-01   -8.107156754e-01    7.336959243e-05    9.293109179e-05    0.000000000e+00    0.000000000e+00    0.000000000e+00    0.000000000e+00
       42197419    5.504421592e-01   -8.308034539e-01    7.115118206e-05    1.099053770e-04    0.000000000e+00    0.000000000e+00    0.000000000e+00    0.000000000e+00
       43759916    5.209685564e-01   -8.502270579e-01    3.947038203e-05    1.090141013e-04    0.000000000e+00    0.000000000e+00    0.000000000e+00    0.000000000e+00
       45322413    4.913728535e-01   -8.682044148e-01    7.118098438e-05    1.032557338e-04    0.000000000e+00    0.000000000e+00    0.000000000e+00    0.000000000e+00
       46884910    4.607632458e-01   -8.847088218e-01    6.134621799e-05    1.126136631e-04    0.000000000e+00    0.000000000e+00    0.000000000e+00    0.000000000e+00
       48447407    4.300547242e-01   -9.005730748e-01    1.230444759e-04    1.060124487e-04    0.000000000e+00    0.000000000e+00    0.000000000e+00    0.000000000e+00
       50009904    3.987485170e-01   -9.154307246e-01    8.920300752e-05    1.456309110e-04    0.000000000e+00    0.000000000e+00    0.000000000e+00    0.000000000e+00
       51572401    3.671788573e-01   -9.299825430e-01    1.292321831e-04    4.726368934e-05    0.000000000e+00    0.000000000e+00    0.000000000e+00    0.000000000e+00
       53134898    3.352807760e-01   -9.417350888e-01    1.087551937e-04    1.385854557e-04    0.000000000e+00    0.000000000e+00    0.000000000e+00    0.000000000e+00
       54697395    3.030650914e-01   -9.536597729e-01    1.523699611e-04    1.049311832e-04    0.000000000e+00    0.000000000e+00    0.000000000e+00    0.000000000e+00
       56259892    2.701942921e-01   -9.639279246e-01    1.571392640e-04    8.642021567e-05    0.000000000e+00    0.000000000e+00    0.000000000e+00    0.000000000e+00
       57822389    2.372607589e-01   -9.730519056e-01    1.390865073e-04    9.129848331e-05    0.000000000e+00    0.000000000e+00    0.000000000e+00    0.000000000e+00
       59384886    2.041575909e-01   -9.805911183e-01    1.391777769e-04    7.023755461e-05    0.000000000e+00    0.000000000e+00    0.000000000e+00    0.000000000e+00
       60947383    1.710300446e-01   -9.883784652e-01    1.230956987e-04    7.798429579e-05    0.000000000e+00    0.000000000e+00    0.000000000e+00    0.000000000e+00
       62509880    1.376928836e-01   -9.937026501e-01    1.548053697e-04    7.592514157e-05    0.000000000e+00    0.000000000e+00    0.000000000e+00    0.000000000e+00
       64072377    1.039008051e-01   -9.982983470e-01    1.795003191e-04    8.779391646e-05    0.000000000e+00    0.000000000e+00    0.000000000e+00    0.000000000e+00
       65634874    7.083872706e-02   -1.001542926e+00    1.368513331e-04    8.257944137e-05    0.000000000e+00    0.000000000e+00    0.000000000e+00    0.000000000e+00
       67197371    3.658355772e-02   -1.004623294e+00    1.674778759e-04    7.702037692e-05    0.000000000e+00    0.000000000e+00    0.000000000e+00    0.000000000e+00
       68759868    3.267717548e-03   -1.006030798e+00    1.529958099e-04    7.307995111e-05    0.000000000e+00    0.000000000e+00    0.000000000e+00    0.000000000e+00
       70322365   -3.030171059e-02   -1.005924940e+00    1.449789852e-04    5.837995559e-05    0.000000000e+00    0.000000000e+00    0.000000000e+00    0.000000000e+00
       71884862   -6.363294274e-02   -1.004938006e+00    2.066949382e-04    8.928310126e-05    0.000000000e+00    0.000000000e+00    0.000000000e+00    0.000000000e+00
       73447359   -9.614837170e-02   -1.003194332e+00    2.182144672e-04    5.692522973e-05    0.000000000e+00    0.000000000e+00    0.000000000e+00    0.000000000e+00
       75009856   -1.297571510e-01   -1.000194550e+00    1.926291734e-04    6.328057498e-05    0.000000000e+00    0.000000000e+00    0.000000000e+00    0.000000000e+00
       76572353   -1.627158225e-01   -9.955734611e-01    1.735119149e-04    5.672685802e-05    0.000000000e+00    0.000000000e+00    0.000000000e+00    0.000000000e+00
       78134850   -1.954256892e-01   -9.909627438e-01    2.033365890e-04    4.848651588e-05    0.000000000e+00    0.000000000e+00    0.000000000e+00    0.000000000e+00
       79697347   -2.278875560e-01   -9.844789505e-01    1.856395975e-04    4.093721509e-05    0.000000000e+00    0.000000000e+00    0.000000000e+00    0.000000000e+00
       81259844   -2.596949637e-01   -9.771029353e-01    1.890454441e-04    4.090648144e-05    0.000000000e+00    0.000000000e+00    0.000000000e+00    0.000000000e+00
       82822341   -2.908315659e-01   -9.694221616e-01    2.398518845e-04    2.019852400e-05    0.000000000e+00    0.000000000e+00    0.000000000e+00    0.000000000e+00
       84384838   -3.224929273e-01   -9.601247311e-01    2.049151808e-04    3.014132380e-05    0.000000000e+00    0.000000000e+00    0.000000000e+00    0.000000000e+00
       85947335   -3.532634377e-01   -9.498814940e-01    2.132067457e-04    2.589169890e-05    0.000000000e+00    0.000000000e+00    0.000000000e+00    0.000000000e+00
       87509832   -3.844335973e-01   -9.389494061e-01    1.986548305e-04    9.870156646e-06    0.000000000e+00    0.000000000e+00    0.000000000e+00    0.000000000e+00
       89072329   -4.135248661e-01   -9.264931083e-01    2.457005903e-04    1.045223325e-05    0.000000000e+00    0.000000000e+00    0.000000000e+00    0.000000000e+00
       90634826   -4.436205328e-01   -9.140563011e-01    2.520745620e-04    1.605879515e-05    0.000000000e+00    0.000000000e+00    0.000000000e+00    0.000000000e+00
       92197323   -4.727583826e-01   -8.998995423e-01    2.407096326e-04   -9.627081454e-06    0.000000000e+00    0.000000000e+00    0.000000000e+00    0.000000000e+00
       93759820   -5.017933846e-01   -8.847199082e-01    2.525299788e-04   -7.816590369e-06    0.000000000e+00    0.000000000e+00    0.000000000e+00    0.000000000e+00
       95322317   -5.298975110e-01   -8.689458370e-01    2.520931885e-04   -1.154653728e-05    0.000000000e+00    0.000000000e+00    0.000000000e+00    0.000000000e+00
       96884814   -5.573157072e-01   -8.523780107e-01    2.645170316e-04   -2.258177847e-05    0.000000000e+00    0.000000000e+00    0.000000000e+00    0.000000000e+00
       98447311   -5.843532681e-01   -8.351482749e-01    2.732798457e-04   -6.882566959e-05    0.000000000e+00    0.000000000e+00    0.000000000e+00    0.000000000e+00
      100009808   -5.862494111e-01   -7.557768226e-01    2.291882411e-04   -9.303912520e-05    0.000000000e+00    0.000000000e+00    0.000000000e+00    0.000000000e+00
      101572305   -6.084841490e-01   -7.374068499e-01    2.738712355e-04   -5.526747555e-05    0.000000000e+00    0.000000000e+00    0.000000000e+00    0.000000000e+00
      103134802   -6.302027106e-01   -7.185349464e-01    2.562943846e-04   -7.287785411e-05    0.000000000e+00    0.000000000e+00    0.000000000e+00    0.000000000e+00
      104697299   -6.511835456e-01   -6.989654899e-01    2.764463425e-04   -5.755759776e-05    0.000000000e+00    0.000000000e+00    0.000000000e+00    0.000000000e+00
      106259796   -6.715399623e-01   -6.788856983e-01    2.406900749e-04   -8.640065789e-05    0.000000000e+00    0.000000000e+00    0.000000000e+00    0.000000000e+00
      107822293   -6.914440989e-01   -6.587178111e-01    2.460433170e-04   -9.806081653e-05    0.000000000e+00    0.000000000e+00    0.000000000e+00    0.000000000e+00
      109384790   -7.105821967e-01   -6.375111938e-01    2.345563844e-04   -5.686096847e-05    0.000000000e+00    0.000000000e+00    0.000000000e+00    0.000000000e+00
      110947287   -7.290546894e-01   -6.164737940e-01    2.287346870e-04   -1.134229824e-04    0.000000000e+00    0.000000000e+00    0.000000000e+00    0.000000000e+00
      112509784   -7.471845150e-01   -5.950724483e-01    2.189520746e-04   -1.171752810e-04    0.000000000e+00    0.000000000e+00    0.000000000e+00    0.000000000e+00
      114072281   -7.647104859e-01   -5.725300312e-01    2.852687612e-04   -1.384308562e-04    0.000000000e+00    0.000000000e+00    0.000000000e+00    0.000000000e+00
      115634778   -7.812995315e-01   -5.494377613e-01    2.905689180e-04   -1.160558313e-04    0.000000000e+00    0.000000000e+00    0.000000000e+00    0.000000000e+00
      117197275   -7.971283197e-01   -5.262503624e-01    2.658460289e-04   -1.375935972e-04    0.000000000e+00    0.000000000e+00    0.000000000e+00    0.000000000e+00
      118759772   -8.125749230e-01   -5.028150082e-01    2.357140183e-04   -1.275371760e-04    0.000000000e+00    0.000000000e+00    0.000000000e+00    0.000000000e+00
      120322269   -8.270235658e-01   -4.784857035e-01    2.692230046e-04   -1.728273928e-04    0.000000000e+00    0.000000000e+00    0.000000000e+00    0.000000000e+00
      121884766   -8.412587047e-01   -4.543828666e-01    2.245269716e-04   -1.553110778e-04    0.000000000e+00    0.000000000e+00    0.000000000e+00    0.000000000e+00
      123447263   -8.538507223e-01   -4.289986789e-01    2.516061068e-04   -1.572500914e-04    0.000000000e+00    0.000000000e+00    0.000000000e+00    0.000000000e+00
      125009760   -8.662695289e-01   -4.038602412e-01    2.069855109e-04   -1.664441079e-04    0.000000000e+00    0.000000000e+00    0.000000000e+00    0.000000000e+00
      126572257   -8.785124421e-01   -3.786857724e-01    2.535684034e-04   -1.968797296e-04    0.000000000e+00    0.000000000e+00    0.000000000e+00    0.000000000e+00
      128134754   -8.896009922e-01   -3.526351452e-01    2.345172688e-04   -1.817131415e-04    0.000000000e+00    0.000000000e+00    0.000000000e+00    0.000000000e+00
      129697251   -8.992236257e-01   -3.262968063e-01    2.425750718e-04   -1.994855702e-04    0.000000000e+00    0.000000000e+00    0.000000000e+00    0.000000000e+00
      131259748   -9.093434811e-01   -3.001615703e-01    2.346970141e-04   -2.011582255e-04    0.000000000e+00    0.000000000e+00    0.000000000e+00    0.000000000e+00
      132822245   -9.177209735e-01   -2.730964422e-01    1.996085048e-04   -2.374164760e-04    0.000000000e+00    0.000000000e+00    0.000000000e+00    0.000000000e+00
      134384742   -9.258474708e-01   -2.461503446e-01    2.174675465e-04   -2.264156938e-04    0.000000000e+00    0.000000000e+00    0.000000000e+00    0.000000000e+00
      135947239   -9.326171279e-01   -2.184359282e-01    2.230359241e-04   -2.451054752e-04    0.000000000e+00    0.000000000e+00    0.000000000e+00    0.000000000e+00
      137509736   -9.393548965e-01   -1.909527034e-01    2.081440762e-04   -2.673324198e-04    0.000000000e+00    0.000000000e+00    0.000000000e+00    0.000000000e+00
      139072233   -9.454262853e-01   -1.633688062e-01    2.004830167e-04   -2.432130277e-04    0.000000000e+00    0.000000000e+00    0.000000000e+00    0.000000000e+00
      140634730   -9.498527050e-01   -1.349843144e-01    2.215467393e-04   -2.620490268e-04    0.000000000e+00    0.000000000e+00    0.000000000e+00    0.000000000e+00
      142197227   -9.541577101e-01   -1.070222184e-01    2.372749150e-04   -2.728980035e-04    0.000000000e+00    0.000000000e+00    0.000000000e+00    0.000000000e+00
      143759724   -9.566964507e-01   -7.854571939e-02    1.886812970e-04   -2.565290779e-04    0.000000000e+00    0.000000000e+00    0.000000000e+00    0.000000000e+00
      145322221   -9.594127536e-01   -4.995234683e-02    2.106875181e-04   -2.974560484e-04    0.000000000e+00    0.000000000e+00    0.000000000e+00    0.000000000e+00
      146884718   -9.610947967e-01   -2.134159021e-02    1.935511827e-04   -3.165416420e-04    0.000000000e+00    0.000000000e+00    0.000000000e+00    0.000000000e+00
      148447215   -9.617767930e-01    7.505191490e-03    2.021957189e-04   -3.142431378e-04    0.000000000e+00    0.000000000e+00    0.000000000e+00    0.000000000e+00
      150009712   -9.612107277e-01    3.661758080e-02    1.945588738e-04   -3.361720592e-04    0.000000000e+00    0.000000000e+00    0.000000000e+00    0.000000000e+00
      151572209   -9.604506493e-01    6.551978737e-02    1.803990453e-04   -3.332942724e-04    0.000000000e+00    0.000000000e+00    0.000000000e+00    0.000000000e+00
      153134706   -9.580928087e-01    9.469199926e-02    1.535089687e-04   -3.263615072e-04    0.000000000e+00    0.000000000e+00    0.000000000e+00    0.000000000e+00
      154697203   -9.558770061e-01    1.230303645e-01    1.841615885e-04   -3.339918330e-04    0.000000000e+00    0.000000000e+00    0.000000000e+00    0.000000000e+00
      156259700   -9.514902234e-01    1.526165158e-01    1.356089488e-04   -3.398191184e-04    0.000000000e+00    0.000000000e+00    0.000000000e+00    0.000000000e+00
      157822197   -9.478093982e-01    1.812704653e-01    1.794770360e-04   -3.492906690e-04    0.000000000e+00    0.000000000e+00    0.000000000e+00    0.000000000e+00
      159384694   -9.419085383e-01    2.100974917e-01    1.328093931e-04   -3.843177110e-04    0.000000000e+00    0.000000000e+00    0.000000000e+00    0.000000000e+00
      160947191   -9.350844026e-01    2.394737899e-01    1.223031431e-04   -3.922432661e-04    0.000000000e+00    0.000000000e+00    0.000000000e+00    0.000000000e+00
      162509688   -9.273419380e-01    2.679112554e-01    1.360196620e-04   -4.032170400e-04    0.000000000e+00    0.000000000e+00    0.000000000e+00    0.000000000e+00
      164072185   -9.192931652e-01    2.965490520e-01    1.284191385e-04   -3.663823009e-04    0.000000000e+00    0.000000000e+00    0.000000000e+00    0.000000000e+00
      165634682   -9.101033807e-01    3.252843022e-01    1.473752782e-04   -3.961445764e-04    0.000000000e+00    0.000000000e+00    0.000000000e+00    0.000000000e+00
      167197179   -8.996843100e-01    3.529547155e-01    9.363610297e-05   -3.895452246e-04    0.000000000e+00    0.000000000e+00    0.000000000e+00    0.000000000e+00
      168759676   -8.886690736e-01    3.824037313e-01    1.211808994e-04   -4.012025893e-04    0.000000000e+00    0.000000000e+00    0.000000000e+00    0.000000000e+00
      170322173   -8.763883710e-01    4.092079401e-01    5.678366870e-05   -4.108184949e-04    0.000000000e+00    0.000000000e+00    0.000000000e+00    0.000000000e+00
      171884670   -8.633922935e-01    4.368364811e-01    4.331022501e-05   -4.235273227e-04    0.000000000e+00    0.000000000e+00    0.000000000e+00    0.000000000e+00
      173447167   -8.491125107e-01    4.640949368e-01    8.370261639e-05   -4.474204034e-04    0.000000000e+00    0.000000000e+00    0.000000000e+00    0.000000000e+00
      175009664   -8.343761563e-01    4.909161925e-01    5.280133337e-05   -4.224972799e-04    0.000000000e+00    0.000000000e+00    0.000000000e+00    0.000000000e+00
      176572161   -8.180717230e-01    5.176024437e-01    3.997609019e-05   -4.205601290e-04    0.000000000e+00    0.000000000e+00    0.000000000e+00    0.000000000e+00
      178134658   -8.013673425e-01    5.436549187e-01   -1.014210284e-06   -4.486981779e-04    0.000000000e+00    0.000000000e+00    0.000000000e+00    0.000000000e+00
      179697155   -7.834756970e-01    5.690705776e-01    3.278441727e-05   -4.491154104e-04    0.000000000e+00    0.000000000e+00    0.000000000e+00    0.000000000e+00
      181259652   -7.648543119e-01    5.940894485e-01    1.037772745e-05   -4.673106596e-04    0.000000000e+00    0.000000000e+00    0.000000000e+00    0.000000000e+00
