! NanoVNA-App
! Date: 2025-10-30 20:53:55
! Start: 10kHz Stop: 5GHz Points: 3201
! S-Parameter data: F S11 S21 S12 S22
# Hz S RI R 50
!     Frequency           S11_Real           S11_Imag           S21_Real           S21_Imag           S12_Real           S12_Imag           S22_Real           S22_Imag
          10000    1.002087951e+00   -4.171114415e-04   -4.478730261e-06    2.969056368e-06    0.000000000e+00    0.000000000e+00    0.000000000e+00    0.000000000e+00
        1572497    9.946898818e-01   -3.803092241e-02    5.736947060e-06    3.118999302e-05    0.000000000e+00    0.000000000e+00    0.000000000e+00    0.000000000e+00
        3134994    9.934045672e-01   -7.426719368e-02   -1.608673483e-05    3.144983202e-05    0.000000000e+00    0.000000000e+00    0.000000000e+00    0.000000000e+00
        4697491    9.896227121e-01   -1.121916622e-01   -7.851049304e-07    1.734960824e-05    0.000000000e+00    0.000000000e+00    0.000000000e+00    0.000000000e+00
        6259988    9.839988947e-01   -1.486641318e-01    2.079922706e-05   -1.119822264e-05    0.000000000e+00    0.000000000e+00    0.000000000e+00    0.000000000e+00
        7822485    9.776325226e-01   -1.847624779e-01    2.623535693e-06    2.704933286e-05    0.000000000e+00    0.000000000e+00    0.000000000e+00    0.000000000e+00
        9384982    9.694582224e-01   -2.205655128e-01    2.165418118e-05    1.525133848e-05    0.000000000e+00    0.000000000e+00    0.000000000e+00    0.000000000e+00
       10947479    9.605371356e-01   -2.558422089e-01   -1.072324812e-05    2.245139331e-05    0.000000000e+00    0.000000000e+00    0.000000000e+00    0.000000000e+00
       12509976    9.503216147e-01   -2.903214097e-01    9.655021131e-06    2.465117723e-05    0.000000000e+00    0.000000000e+00    0.000000000e+00    0.000000000e+00
       14072473    9.391731024e-01   -3.251881003e-01   -2.762675285e-05   -2.877786756e-06    0.000000000e+00    0.000000000e+00    0.000000000e+00    0.000000000e+00
       15634970    9.267027974e-01   -3.590947390e-01    3.647990525e-06   -2.584699541e-05    0.000000000e+00    0.000000000e+00    0.000000000e+00    0.000000000e+00
       17197467    9.132874012e-01   -3.930494189e-01   -1.906417310e-06    2.084672451e-05    0.000000000e+00    0.000000000e+00    0.000000000e+00    0.000000000e+00
       18759964    8.978298903e-01   -4.256074727e-01   -1.576449722e-05   -7.739290595e-07    0.000000000e+00    0.000000000e+00    0.000000000e+00    0.000000000e+00
       20322461    8.815971613e-01   -4.581226408e-01    6.555579603e-06   -6.382353604e-06    0.000000000e+00    0.000000000e+00    0.000000000e+00    0.000000000e+00
       21884958    8.650820255e-01   -4.893766642e-01   -1.434236765e-07    2.587866038e-05    0.000000000e+00    0.000000000e+00    0.000000000e+00    0.000000000e+00
       23447455    8.472194672e-01   -5.206930041e-01    2.799555659e-06    5.855504423e-05    0.000000000e+00    0.000000000e+00    0.000000000e+00    0.000000000e+00
       25009952    8.270827532e-01   -5.508075356e-01   -2.157315612e-05   -5.815178156e-06    0.000000000e+00    0.000000000e+00    0.000000000e+00    0.000000000e+00
       26572449    8.073087335e-01   -5.805834532e-01    4.368834198e-05    7.497612387e-05    0.000000000e+00    0.000000000e+00    0.000000000e+00    0.000000000e+00
       28134946    7.857877612e-01   -6.089680195e-01   -1.128297299e-05    1.387670636e-05    0.000000000e+00    0.000000000e+00    0.000000000e+00    0.000000000e+00
       29697443    7.637786269e-01   -6.368764639e-01    4.324689507e-05    2.637133002e-05    0.000000000e+00    0.000000000e+00    0.000000000e+00    0.000000000e+00
       31259940    7.406167984e-01   -6.638979912e-01    2.300180495e-05    2.739205956e-05    0.000000000e+00    0.000000000e+00    0.000000000e+00    0.000000000e+00
       32822437    7.164527774e-01   -6.900520921e-01    3.492739052e-05    7.706135511e-05    0.000000000e+00    0.000000000e+00    0.000000000e+00    0.000000000e+00
       34384934    6.915630102e-01   -7.153954506e-01    4.022847861e-05    5.846749991e-05    0.000000000e+00    0.000000000e+00    0.000000000e+00    0.000000000e+00
       35947431    6.662811637e-01   -7.393668890e-01   -9.809620678e-06    9.552575648e-06    0.000000000e+00    0.000000000e+00    0.000000000e+00    0.000000000e+00
       37509928    6.403701901e-01   -7.632795572e-01    4.469975829e-05    5.767401308e-05    0.000000000e+00    0.000000000e+00    0.000000000e+00    0.000000000e+00
       39072425    6.127727628e-01   -7.848370075e-01    1.676660031e-05    1.266598701e-05    0.000000000e+00    0.000000000e+00    0.000000000e+00    0.000000000e+00
       40634922    5.852963924e-01   -8.067368269e-01    6.873533130e-05    5.281157792e-05    0.000000000e+00    0.000000000e+00    0.000000000e+00    0.000000000e+00
       42197419    5.568768382e-01   -8.270591497e-01    2.864655107e-05    6.221327931e-05    0.000000000e+00    0.000000000e+00    0.000000000e+00    0.000000000e+00
       43759916    5.280470848e-01   -8.459725380e-01    4.803854972e-05    3.075320274e-05    0.000000000e+00    0.000000000e+00    0.000000000e+00    0.000000000e+00
       45322413    4.988198578e-01   -8.642183542e-01    5.690380931e-06    4.602782428e-05    0.000000000e+00    0.000000000e+00    0.000000000e+00    0.000000000e+00
       46884910    4.683651030e-01   -8.817989826e-01    4.709046334e-05    2.673175186e-05    0.000000000e+00    0.000000000e+00    0.000000000e+00    0.000000000e+00
       48447407    4.378231764e-01   -8.967638016e-01    5.711615086e-05    5.439016968e-05    0.000000000e+00    0.000000000e+00    0.000000000e+00    0.000000000e+00
       50009904    4.068835378e-01   -9.125171304e-01    3.805849701e-05    3.527197987e-05    0.000000000e+00    0.000000000e+00    0.000000000e+00    0.000000000e+00
       51572401    3.763291836e-01   -9.255583882e-01   -1.257285476e-06    3.745220602e-05    0.000000000e+00    0.000000000e+00    0.000000000e+00    0.000000000e+00
       53134898    3.447387218e-01   -9.387428761e-01    3.762077540e-05    4.080403596e-05    0.000000000e+00    0.000000000e+00    0.000000000e+00    0.000000000e+00
       54697395    3.124600053e-01   -9.503031373e-01    3.304705024e-05    2.852641046e-05    0.000000000e+00    0.000000000e+00    0.000000000e+00    0.000000000e+00
       56259892    2.802461982e-01   -9.611370564e-01    2.418272197e-05    8.818693459e-06    0.000000000e+00    0.000000000e+00    0.000000000e+00    0.000000000e+00
       57822389    2.477893680e-01   -9.706974626e-01    5.715712905e-05    3.787782043e-05    0.000000000e+00    0.000000000e+00    0.000000000e+00    0.000000000e+00
       59384886    2.151469290e-01   -9.794863462e-01    4.028994590e-05    2.134870738e-05    0.000000000e+00    0.000000000e+00    0.000000000e+00    0.000000000e+00
       60947383    1.822900921e-01   -9.865493774e-01    1.208577305e-05    6.382633001e-05    0.000000000e+00    0.000000000e+00    0.000000000e+00    0.000000000e+00
       62509880    1.492970735e-01   -9.924162626e-01    4.082918167e-05    1.392327249e-05    0.000000000e+00    0.000000000e+00    0.000000000e+00    0.000000000e+00
       64072377    1.159206256e-01   -9.974119663e-01    6.660632789e-05    5.613639951e-05    0.000000000e+00    0.000000000e+00    0.000000000e+00    0.000000000e+00
       65634874    8.266302943e-02   -1.001240015e+00    3.192294389e-05    2.148933709e-05    0.000000000e+00    0.000000000e+00    0.000000000e+00    0.000000000e+00
       67197371    4.947766662e-02   -1.004572630e+00    5.526002496e-05    2.699904144e-05    0.000000000e+00    0.000000000e+00    0.000000000e+00    0.000000000e+00
       68759868    1.676023751e-02   -1.005776525e+00    3.110431135e-05    2.814643085e-05    0.000000000e+00    0.000000000e+00    0.000000000e+00    0.000000000e+00
       70322365   -1.681549661e-02   -1.006865144e+00    9.503681213e-05   -1.598428935e-05    0.000000000e+00    0.000000000e+00    0.000000000e+00    0.000000000e+00
       71884862   -4.927037656e-02   -1.005982757e+00    6.736069918e-05    2.714432776e-05    0.000000000e+00    0.000000000e+00    0.000000000e+00    0.000000000e+00
       73447359   -8.297207206e-02   -1.004975557e+00    5.357060581e-05    1.865439117e-06    0.000000000e+00    0.000000000e+00    0.000000000e+00    0.000000000e+00
       75009856   -1.152385026e-01   -1.002625704e+00    4.586856812e-05    7.531605661e-06    0.000000000e+00    0.000000000e+00    0.000000000e+00    0.000000000e+00
       76572353   -1.480317861e-01   -9.988328218e-01    6.304122508e-05    3.767944872e-05    0.000000000e+00    0.000000000e+00    0.000000000e+00    0.000000000e+00
       78134850   -1.805042177e-01   -9.947112203e-01    2.799835056e-05    2.495944500e-05    0.000000000e+00    0.000000000e+00    0.000000000e+00    0.000000000e+00
       79697347   -2.128938884e-01   -9.892061353e-01    6.414484233e-05    1.571606845e-05    0.000000000e+00    0.000000000e+00    0.000000000e+00    0.000000000e+00
       81259844   -2.446110249e-01   -9.821863770e-01    7.657893002e-05    2.498365939e-05    0.000000000e+00    0.000000000e+00    0.000000000e+00    0.000000000e+00
       82822341   -2.759283483e-01   -9.749426842e-01    8.424650878e-05    1.844577491e-05    0.000000000e+00    0.000000000e+00    0.000000000e+00    0.000000000e+00
       84384838   -3.069278896e-01   -9.660891294e-01    8.971989155e-05    4.024803638e-05    0.000000000e+00    0.000000000e+00    0.000000000e+00    0.000000000e+00
       85947335   -3.377876282e-01   -9.567502141e-01    7.971096784e-05    1.391675323e-05    0.000000000e+00    0.000000000e+00    0.000000000e+00    0.000000000e+00
       87509832   -3.686714768e-01   -9.462480545e-01    1.013493165e-04    2.865400165e-05    0.000000000e+00    0.000000000e+00    0.000000000e+00    0.000000000e+00
       89072329   -3.985726833e-01   -9.349662066e-01    5.956087261e-05   -7.860362530e-06    0.000000000e+00    0.000000000e+00    0.000000000e+00    0.000000000e+00
       90634826   -4.279191196e-01   -9.225892425e-01    9.363889694e-05    4.275701940e-06    0.000000000e+00    0.000000000e+00    0.000000000e+00    0.000000000e+00
       92197323   -4.567735791e-01   -9.094799161e-01    7.371231914e-05    1.340080053e-05    0.000000000e+00    0.000000000e+00    0.000000000e+00    0.000000000e+00
       93759820   -4.855138659e-01   -8.953379989e-01    8.605699986e-05    2.483651042e-05    0.000000000e+00    0.000000000e+00    0.000000000e+00    0.000000000e+00
       95322317   -5.137677789e-01   -8.801980019e-01    1.118825749e-04    4.699546844e-05    0.000000000e+00    0.000000000e+00    0.000000000e+00    0.000000000e+00
       96884814   -5.414454937e-01   -8.647017479e-01    5.351658911e-05   -4.772096872e-06    0.000000000e+00    0.000000000e+00    0.000000000e+00    0.000000000e+00
       98447311   -5.682491660e-01   -8.479691744e-01    7.034465671e-05    8.009374142e-08    0.000000000e+00    0.000000000e+00    0.000000000e+00    0.000000000e+00
      100009808   -5.723962784e-01   -7.691748142e-01    7.413420826e-05   -4.078075290e-05    0.000000000e+00    0.000000000e+00    0.000000000e+00    0.000000000e+00
      101572305   -5.948126316e-01   -7.504743338e-01    5.772337317e-05   -3.465451300e-06    0.000000000e+00    0.000000000e+00    0.000000000e+00    0.000000000e+00
      103134802   -6.168228388e-01   -7.327255607e-01    8.255057037e-05   -4.650745541e-05    0.000000000e+00    0.000000000e+00    0.000000000e+00    0.000000000e+00
      104697299   -6.379978657e-01   -7.135110497e-01    8.555594832e-05   -1.238193363e-05    0.000000000e+00    0.000000000e+00    0.000000000e+00    0.000000000e+00
      106259796   -6.584665179e-01   -6.942030191e-01    5.097780377e-05   -9.023584425e-06    0.000000000e+00    0.000000000e+00    0.000000000e+00    0.000000000e+00
      107822293   -6.788859963e-01   -6.745473742e-01    9.980238974e-05   -5.339737982e-05    0.000000000e+00    0.000000000e+00    0.000000000e+00    0.000000000e+00
      109384790   -6.984831691e-01   -6.546145678e-01    7.835496217e-05   -4.294794053e-05    0.000000000e+00    0.000000000e+00    0.000000000e+00    0.000000000e+00
      110947287   -7.169764638e-01   -6.341205835e-01    9.078625590e-05   -4.388391972e-05    0.000000000e+00    0.000000000e+00    0.000000000e+00    0.000000000e+00
      112509784   -7.355496287e-01   -6.128482223e-01    9.171478450e-05   -4.294980317e-05    0.000000000e+00    0.000000000e+00    0.000000000e+00    0.000000000e+00
      114072281   -7.532293200e-01   -5.911791921e-01    7.154699415e-05   -6.545241922e-05    0.000000000e+00    0.000000000e+00    0.000000000e+00    0.000000000e+00
      115634778   -7.702555060e-01   -5.691863894e-01    5.493126810e-05   -6.796978414e-05    0.000000000e+00    0.000000000e+00    0.000000000e+00    0.000000000e+00
      117197275   -7.869625688e-01   -5.464993715e-01    1.002755016e-04   -4.703179002e-05    0.000000000e+00    0.000000000e+00    0.000000000e+00    0.000000000e+00
      118759772   -8.024083376e-01   -5.241089463e-01    9.866803885e-05   -3.953743726e-05    0.000000000e+00    0.000000000e+00    0.000000000e+00    0.000000000e+00
      120322269   -8.176064491e-01   -5.003699660e-01    1.149615273e-04   -5.460530519e-05    0.000000000e+00    0.000000000e+00    0.000000000e+00    0.000000000e+00
      121884766   -8.317365050e-01   -4.762879610e-01    7.141288370e-05   -3.411341459e-05    0.000000000e+00    0.000000000e+00    0.000000000e+00    0.000000000e+00
      123447263   -8.456349969e-01   -4.517927766e-01    6.243772805e-05   -4.236679524e-05    0.000000000e+00    0.000000000e+00    0.000000000e+00    0.000000000e+00
      125009760   -8.585107327e-01   -4.275856912e-01    8.601974696e-05   -6.547663361e-05    0.000000000e+00    0.000000000e+00    0.000000000e+00    0.000000000e+00
      126572257   -8.711066842e-01   -4.029197693e-01    9.794533253e-05   -4.830677062e-05    0.000000000e+00    0.000000000e+00    0.000000000e+00    0.000000000e+00
      128134754   -8.824579716e-01   -3.774538040e-01    5.124881864e-05   -6.101932377e-05    0.000000000e+00    0.000000000e+00    0.000000000e+00    0.000000000e+00
      129697251   -8.938295245e-01   -3.523366749e-01    6.191711873e-05   -7.566995919e-05    0.000000000e+00    0.000000000e+00    0.000000000e+00    0.000000000e+00
      131259748   -9.043579698e-01   -3.263580501e-01    6.659422070e-05   -7.751956582e-05    0.000000000e+00    0.000000000e+00    0.000000000e+00    0.000000000e+00
      132822245   -9.137400985e-01   -3.000278771e-01    4.064850509e-05   -8.678436279e-05    0.000000000e+00    0.000000000e+00    0.000000000e+00    0.000000000e+00
      134384742   -9.226827025e-01   -2.735504508e-01    8.198153228e-05   -1.032482833e-04    0.000000000e+00    0.000000000e+00    0.000000000e+00    0.000000000e+00
      135947239   -9.299674034e-01   -2.461464852e-01    6.338674575e-05   -7.847417146e-05    0.000000000e+00    0.000000000e+00    0.000000000e+00    0.000000000e+00
      137509736   -9.373864532e-01   -2.191893011e-01    7.529556751e-05   -9.617768228e-05    0.000000000e+00    0.000000000e+00    0.000000000e+00    0.000000000e+00
      139072233   -9.444264174e-01   -1.923992038e-01    7.667671889e-05   -9.720679373e-05    0.000000000e+00    0.000000000e+00    0.000000000e+00    0.000000000e+00
      140634730   -9.496913552e-01   -1.646226197e-01    8.694548160e-05   -9.338464588e-05    0.000000000e+00    0.000000000e+00    0.000000000e+00    0.000000000e+00
      142197227   -9.543265104e-01   -1.369123757e-01    6.723031402e-05   -8.527096361e-05    0.000000000e+00    0.000000000e+00    0.000000000e+00    0.000000000e+00
      143759724   -9.586408138e-01   -1.093095243e-01    7.931236178e-05   -8.071400225e-05    0.000000000e+00    0.000000000e+00    0.000000000e+00    0.000000000e+00
      145322221   -9.622392654e-01   -8.114303648e-02    5.979090929e-05   -1.035407186e-04    0.000000000e+00    0.000000000e+00    0.000000000e+00    0.000000000e+00
      146884718   -9.649906754e-01   -5.273552611e-02    9.471736848e-05   -9.617116302e-05    0.000000000e+00    0.000000000e+00    0.000000000e+00    0.000000000e+00
      148447215   -9.666633606e-01   -2.449697815e-02    6.476603448e-05   -7.946975529e-05    0.000000000e+00    0.000000000e+00    0.000000000e+00    0.000000000e+00
      150009712   -9.676143527e-01    3.895589150e-03    8.343160152e-05   -1.066308469e-04    0.000000000e+00    0.000000000e+00    0.000000000e+00    0.000000000e+00
      151572209   -9.677197933e-01    3.259793296e-02    6.491225213e-05   -1.575509086e-04    0.000000000e+00    0.000000000e+00    0.000000000e+00    0.000000000e+00
      153134706   -9.670433998e-01    6.133739278e-02    5.660112947e-05   -1.086546108e-04    0.000000000e+00    0.000000000e+00    0.000000000e+00    0.000000000e+00
      154697203   -9.650976062e-01    9.018054605e-02    5.492102355e-05   -1.133130863e-04    0.000000000e+00    0.000000000e+00    0.000000000e+00    0.000000000e+00
      156259700   -9.624751210e-01    1.190490946e-01    5.159620196e-05   -1.016119495e-04    0.000000000e+00    0.000000000e+00    0.000000000e+00    0.000000000e+00
      157822197   -9.591015577e-01    1.479219794e-01    5.295686424e-05   -8.744467050e-05    0.000000000e+00    0.000000000e+00    0.000000000e+00    0.000000000e+00
      159384694   -9.549463987e-01    1.767561734e-01    8.174404502e-05   -1.311255619e-04    0.000000000e+00    0.000000000e+00    0.000000000e+00    0.000000000e+00
      160947191   -9.500270486e-01    2.054167539e-01    7.318891585e-05   -1.124888659e-04    0.000000000e+00    0.000000000e+00    0.000000000e+00    0.000000000e+00
      162509688   -9.435248375e-01    2.339349538e-01    5.701743066e-05   -1.267921180e-04    0.000000000e+00    0.000000000e+00    0.000000000e+00    0.000000000e+00
      164072185   -9.364867210e-01    2.628854215e-01    6.839353591e-05   -1.329611987e-04    0.000000000e+00    0.000000000e+00    0.000000000e+00    0.000000000e+00
      165634682   -9.289611578e-01    2.913140655e-01    6.397068501e-05   -1.403046772e-04    0.000000000e+00    0.000000000e+00    0.000000000e+00    0.000000000e+00
      167197179   -9.202881455e-01    3.195451796e-01    5.369074643e-05   -1.327032223e-04    0.000000000e+00    0.000000000e+00    0.000000000e+00    0.000000000e+00
      168759676   -9.102572799e-01    3.483273387e-01    3.956444561e-05   -1.093987375e-04    0.000000000e+00    0.000000000e+00    0.000000000e+00    0.000000000e+00
      170322173   -9.002762437e-01    3.758341670e-01    1.687277108e-05   -1.151356846e-04    0.000000000e+00    0.000000000e+00    0.000000000e+00    0.000000000e+00
      171884670   -8.884608746e-01    4.039966762e-01    4.526227713e-05   -1.523010433e-04    0.000000000e+00    0.000000000e+00    0.000000000e+00    0.000000000e+00
      173447167   -8.755069971e-01    4.315911233e-01    4.005245864e-05   -1.541087404e-04    0.000000000e+00    0.000000000e+00    0.000000000e+00    0.000000000e+00
      175009664   -8.620171547e-01    4.588855505e-01    4.087574780e-06   -1.263655722e-04    0.000000000e+00    0.000000000e+00    0.000000000e+00    0.000000000e+00
      176572161   -8.474657536e-01    4.857751727e-01    2.939254045e-05   -1.320224255e-04    0.000000000e+00    0.000000000e+00    0.000000000e+00    0.000000000e+00
      178134658   -8.322753906e-01    5.122147202e-01    1.222826540e-05   -1.477189362e-04    0.000000000e+00    0.000000000e+00    0.000000000e+00    0.000000000e+00
      179697155   -8.161287904e-01    5.385584235e-01    1.643784344e-05   -1.465165988e-04    0.000000000e+00    0.000000000e+00    0.000000000e+00    0.000000000e+00
      181259652   -7.989621758e-01    5.644079447e-01   -1.082848758e-05   -1.143226400e-04    0.000000000e+00    0.000000000e+00    0.000000000e+00    0.000000000e+00
