! NanoVNA-App
! Date: 2025-10-30 21:03:22
! Start: 10kHz Stop: 5GHz Points: 3201
! S-Parameter data: F S11 S21 S12 S22
# Hz S RI R 50
!     Frequency           S11_Real           S11_Imag           S21_Real           S21_Imag           S12_Real           S12_Imag           S22_Real           S22_Imag
          10000    1.002021432e+00   -5.069440231e-04    4.141591489e-06   -2.007000148e-06    0.000000000e+00    0.000000000e+00    0.000000000e+00    0.000000000e+00
        1572497    9.947192073e-01   -3.743034601e-02   -4.159286618e-06    2.615526319e-05    0.000000000e+00    0.000000000e+00    0.000000000e+00    0.000000000e+00
        3134994    9.940847158e-01   -7.480356842e-02   -2.586282790e-06   -4.088506103e-06    0.000000000e+00    0.000000000e+00    0.000000000e+00    0.000000000e+00
        4697491    9.902284741e-01   -1.125285178e-01   -1.750886440e-06    3.603938967e-05    0.000000000e+00    0.000000000e+00    0.000000000e+00    0.000000000e+00
        6259988    9.842583537e-01   -1.503001750e-01   -1.384411007e-05   -7.371418178e-06    0.000000000e+00    0.000000000e+00    0.000000000e+00    0.000000000e+00
        7822485    9.771780372e-01   -1.862079054e-01    3.211293370e-05    3.485940397e-06    0.000000000e+00    0.000000000e+00    0.000000000e+00    0.000000000e+00
        9384982    9.697139859e-01   -2.220415622e-01    2.341996878e-05    2.775341272e-07    0.000000000e+00    0.000000000e+00    0.000000000e+00    0.000000000e+00
       10947479    9.602961540e-01   -2.581852376e-01   -1.671630889e-05    2.846121788e-06    0.000000000e+00    0.000000000e+00    0.000000000e+00    0.000000000e+00
       12509976    9.506310225e-01   -2.929911613e-01    4.036352038e-06    1.595448703e-05    0.000000000e+00    0.000000000e+00    0.000000000e+00    0.000000000e+00
       14072473    9.383659363e-01   -3.279204667e-01    2.020131797e-05   -9.220093489e-07    0.000000000e+00    0.000000000e+00    0.000000000e+00    0.000000000e+00
       15634970    9.254480004e-01   -3.622705638e-01    5.104020238e-05   -1.316890121e-05    0.000000000e+00    0.000000000e+00    0.000000000e+00    0.000000000e+00
       17197467    9.121662974e-01   -3.957639039e-01    3.062561154e-05    2.891290933e-05    0.000000000e+00    0.000000000e+00    0.000000000e+00    0.000000000e+00
       18759964    8.967735767e-01   -4.293200672e-01    3.783963621e-05    3.255531192e-05    0.000000000e+00    0.000000000e+00    0.000000000e+00    0.000000000e+00
       20322461    8.807327747e-01   -4.623470008e-01   -1.275166869e-05    1.953169703e-05    0.000000000e+00    0.000000000e+00    0.000000000e+00    0.000000000e+00
       21884958    8.632567525e-01   -4.934886992e-01   -1.004338264e-05    1.531094313e-05    0.000000000e+00    0.000000000e+00    0.000000000e+00    0.000000000e+00
       23447455    8.445597291e-01   -5.244553685e-01   -1.635309309e-05   -7.078051567e-06    0.000000000e+00    0.000000000e+00    0.000000000e+00    0.000000000e+00
       25009952    8.251721859e-01   -5.552474260e-01    8.981674910e-06    2.379156649e-05    0.000000000e+00    0.000000000e+00    0.000000000e+00    0.000000000e+00
       26572449    8.044576645e-01   -5.853253603e-01    8.801929653e-06    3.776513040e-06    0.000000000e+00    0.000000000e+00    0.000000000e+00    0.000000000e+00
       28134946    7.826700211e-01   -6.139575839e-01   -1.911912113e-05   -1.624226570e-06    0.000000000e+00    0.000000000e+00    0.000000000e+00    0.000000000e+00
       29697443    7.605955601e-01   -6.420192122e-01    1.526717097e-05    3.994163126e-05    0.000000000e+00    0.000000000e+00    0.000000000e+00    0.000000000e+00
       31259940    7.374126315e-01   -6.694409847e-01   -2.096313983e-05    4.156865180e-05    0.000000000e+00    0.000000000e+00    0.000000000e+00    0.000000000e+00
       32822437    7.128282189e-01   -6.952021718e-01    6.224028766e-06    4.703830928e-05    0.000000000e+00    0.000000000e+00    0.000000000e+00    0.000000000e+00
       34384934    6.878561378e-01   -7.203495502e-01    2.054497600e-05    2.992898226e-05    0.000000000e+00    0.000000000e+00    0.000000000e+00    0.000000000e+00
       35947431    6.613461971e-01   -7.454222441e-01    4.210788757e-05    2.595223486e-05    0.000000000e+00    0.000000000e+00    0.000000000e+00    0.000000000e+00
       37509928    6.349205375e-01   -7.682428360e-01    2.724025398e-05    8.613802493e-06    0.000000000e+00    0.000000000e+00    0.000000000e+00    0.000000000e+00
       39072425    6.072639823e-01   -7.906557322e-01    1.821108162e-05    2.763327211e-05    0.000000000e+00    0.000000000e+00    0.000000000e+00    0.000000000e+00
       40634922    5.791489482e-01   -8.120257854e-01    5.278177559e-05    4.544481635e-05    0.000000000e+00    0.000000000e+00    0.000000000e+00    0.000000000e+00
       42197419    5.499150157e-01   -8.322429657e-01    4.028994590e-05    4.030205309e-05    0.000000000e+00    0.000000000e+00    0.000000000e+00    0.000000000e+00
       43759916    5.211120844e-01   -8.513941765e-01   -6.631016731e-06    3.304146230e-05    0.000000000e+00    0.000000000e+00    0.000000000e+00    0.000000000e+00
       45322413    4.911497235e-01   -8.693848252e-01    4.415493459e-05    2.730265260e-05    0.000000000e+00    0.000000000e+00    0.000000000e+00    0.000000000e+00
       46884910    4.610143304e-01   -8.863417506e-01    1.897290349e-05    5.308259279e-05    0.000000000e+00    0.000000000e+00    0.000000000e+00    0.000000000e+00
       48447407    4.298891127e-01   -9.023203254e-01    7.098540664e-06    7.112976164e-05    0.000000000e+00    0.000000000e+00    0.000000000e+00    0.000000000e+00
       50009904    3.985917568e-01   -9.168746471e-01    5.888286978e-05    3.284402192e-05    0.000000000e+00    0.000000000e+00    0.000000000e+00    0.000000000e+00
       51572401    3.671391606e-01   -9.314169288e-01    7.751304656e-05    2.277363092e-05    0.000000000e+00    0.000000000e+00    0.000000000e+00    0.000000000e+00
       53134898    3.349376917e-01   -9.433830976e-01    5.044788122e-05    5.912408233e-05    0.000000000e+00    0.000000000e+00    0.000000000e+00    0.000000000e+00
       54697395    3.024277985e-01   -9.548119903e-01    1.728069037e-05    5.213636905e-05    0.000000000e+00    0.000000000e+00    0.000000000e+00    0.000000000e+00
       56259892    2.699101567e-01   -9.650748968e-01    5.274452269e-05    1.888442785e-05    0.000000000e+00    0.000000000e+00    0.000000000e+00    0.000000000e+00
       57822389    2.367890179e-01   -9.747056961e-01    1.867301762e-05    2.698041499e-05    0.000000000e+00    0.000000000e+00    0.000000000e+00    0.000000000e+00
       59384886    2.034677267e-01   -9.833536148e-01    3.031641245e-05    3.862194717e-06    0.000000000e+00    0.000000000e+00    0.000000000e+00    0.000000000e+00
       60947383    1.703229100e-01   -9.892529249e-01    4.738476127e-05    9.543262422e-06    0.000000000e+00    0.000000000e+00    0.000000000e+00    0.000000000e+00
       62509880    1.375794262e-01   -9.958060980e-01    4.165153950e-05    2.600159496e-05    0.000000000e+00    0.000000000e+00    0.000000000e+00    0.000000000e+00
       64072377    1.032731161e-01   -1.000416398e+00    1.824554056e-05    3.461260349e-05    0.000000000e+00    0.000000000e+00    0.000000000e+00    0.000000000e+00
       65634874    6.934271753e-02   -1.004179835e+00    6.410852075e-05    3.594905138e-07    0.000000000e+00    0.000000000e+00    0.000000000e+00    0.000000000e+00
       67197371    3.578345105e-02   -1.006518126e+00    4.636403173e-05    2.996809781e-05    0.000000000e+00    0.000000000e+00    0.000000000e+00    0.000000000e+00
       68759868    3.391660750e-03   -1.007190585e+00    1.055402681e-04    5.808286369e-05    0.000000000e+00    0.000000000e+00    0.000000000e+00    0.000000000e+00
       70322365   -3.110540472e-02   -1.008223057e+00    8.015055209e-05    3.593508154e-05    0.000000000e+00    0.000000000e+00    0.000000000e+00    0.000000000e+00
       71884862   -6.454029679e-02   -1.007489204e+00    1.058680937e-04    1.542922109e-05    0.000000000e+00    0.000000000e+00    0.000000000e+00    0.000000000e+00
       73447359   -9.742747247e-02   -1.004985332e+00    4.292465746e-05    3.715977073e-05    0.000000000e+00    0.000000000e+00    0.000000000e+00    0.000000000e+00
       75009856   -1.303941905e-01   -1.002129674e+00    8.213054389e-05    4.179496318e-05    0.000000000e+00    0.000000000e+00    0.000000000e+00    0.000000000e+00
       76572353   -1.639935225e-01   -9.982495904e-01    8.681416512e-05    3.461819142e-05    0.000000000e+00    0.000000000e+00    0.000000000e+00    0.000000000e+00
       78134850   -1.969666481e-01   -9.930969477e-01    3.838073462e-05    3.183260560e-06    0.000000000e+00    0.000000000e+00    0.000000000e+00    0.000000000e+00
       79697347   -2.283669561e-01   -9.870356917e-01    6.545241922e-05   -1.552049071e-05    0.000000000e+00    0.000000000e+00    0.000000000e+00    0.000000000e+00
       81259844   -2.603284717e-01   -9.797312021e-01    7.532536983e-05    1.750979573e-05    0.000000000e+00    0.000000000e+00    0.000000000e+00    0.000000000e+00
       82822341   -2.923743725e-01   -9.713498354e-01    8.584558964e-05    2.180971205e-05    0.000000000e+00    0.000000000e+00    0.000000000e+00    0.000000000e+00
       84384838   -3.237659335e-01   -9.625629187e-01    8.626375347e-05    2.609752119e-05    0.000000000e+00    0.000000000e+00    0.000000000e+00    0.000000000e+00
       85947335   -3.553979695e-01   -9.523708820e-01    5.399528891e-05    2.271030098e-05    0.000000000e+00    0.000000000e+00    0.000000000e+00    0.000000000e+00
       87509832   -3.855550587e-01   -9.412811399e-01    6.369967014e-05   -4.958454520e-05    0.000000000e+00    0.000000000e+00    0.000000000e+00    0.000000000e+00
       89072329   -4.158754349e-01   -9.289622307e-01    1.013725996e-04    2.570822835e-05    0.000000000e+00    0.000000000e+00    0.000000000e+00    0.000000000e+00
       90634826   -4.451787770e-01   -9.162825346e-01    8.684210479e-05   -6.704591215e-06    0.000000000e+00    0.000000000e+00    0.000000000e+00    0.000000000e+00
       92197323   -4.738788903e-01   -9.021199346e-01    5.709566176e-05   -1.818314195e-05    0.000000000e+00    0.000000000e+00    0.000000000e+00    0.000000000e+00
       93759820   -5.037013292e-01   -8.871718645e-01    9.099021554e-05    1.020170748e-05    0.000000000e+00    0.000000000e+00    0.000000000e+00    0.000000000e+00
       95322317   -5.310039520e-01   -8.710572124e-01    1.071756706e-04   -1.080147922e-05    0.000000000e+00    0.000000000e+00    0.000000000e+00    0.000000000e+00
       96884814   -5.593780875e-01   -8.553346992e-01    7.958617061e-05   -4.925485700e-05    0.000000000e+00    0.000000000e+00    0.000000000e+00    0.000000000e+00
       98447311   -5.861680508e-01   -8.376858830e-01    1.032324508e-04   -1.040846109e-05    0.000000000e+00    0.000000000e+00    0.000000000e+00    0.000000000e+00
      100009808   -5.878406167e-01   -7.570154667e-01    5.860440433e-05   -1.245457679e-05    0.000000000e+00    0.000000000e+00    0.000000000e+00    0.000000000e+00
      101572305   -6.104154587e-01   -7.389692068e-01    1.099230722e-04    5.184672773e-06    0.000000000e+00    0.000000000e+00    0.000000000e+00    0.000000000e+00
      103134802   -6.325296164e-01   -7.210132480e-01    7.537100464e-05   -2.418179065e-05    0.000000000e+00    0.000000000e+00    0.000000000e+00    0.000000000e+00
      104697299   -6.533336639e-01   -7.014958262e-01    9.754206985e-05   -2.364162356e-05    0.000000000e+00    0.000000000e+00    0.000000000e+00    0.000000000e+00
      106259796   -6.738698483e-01   -6.810709834e-01    1.249127090e-04   -7.169321179e-06    0.000000000e+00    0.000000000e+00    0.000000000e+00    0.000000000e+00
      107822293   -6.942753196e-01   -6.613924503e-01    9.458418936e-05   -3.742519766e-05    0.000000000e+00    0.000000000e+00    0.000000000e+00    0.000000000e+00
      109384790   -7.135471106e-01   -6.401495934e-01    1.031961292e-04   -2.557877451e-05    0.000000000e+00    0.000000000e+00    0.000000000e+00    0.000000000e+00
      110947287   -7.314746976e-01   -6.185547113e-01    6.539933383e-05   -2.106931061e-05    0.000000000e+00    0.000000000e+00    0.000000000e+00    0.000000000e+00
      112509784   -7.501703501e-01   -5.972121954e-01    9.860750288e-05   -2.030655742e-05    0.000000000e+00    0.000000000e+00    0.000000000e+00    0.000000000e+00
      114072281   -7.673734426e-01   -5.744256973e-01    7.660314441e-05   -2.479460090e-05    0.000000000e+00    0.000000000e+00    0.000000000e+00    0.000000000e+00
      115634778   -7.842172980e-01   -5.516629219e-01    8.291192353e-05   -6.057601422e-05    0.000000000e+00    0.000000000e+00    0.000000000e+00    0.000000000e+00
      117197275   -8.003091216e-01   -5.288228393e-01    1.199115068e-04   -6.034877151e-05    0.000000000e+00    0.000000000e+00    0.000000000e+00    0.000000000e+00
      118759772   -8.156163096e-01   -5.047225952e-01    5.774945021e-05   -6.483867764e-05    0.000000000e+00    0.000000000e+00    0.000000000e+00    0.000000000e+00
      120322269   -8.300234079e-01   -4.809474945e-01    6.423611194e-05   -1.368019730e-05    0.000000000e+00    0.000000000e+00    0.000000000e+00    0.000000000e+00
      121884766   -8.443351984e-01   -4.566141069e-01    1.080948859e-04   -2.520810813e-05    0.000000000e+00    0.000000000e+00    0.000000000e+00    0.000000000e+00
      123447263   -8.576158285e-01   -4.319539964e-01    1.023001969e-04   -7.041171193e-05    0.000000000e+00    0.000000000e+00    0.000000000e+00    0.000000000e+00
      125009760   -8.701231480e-01   -4.062962532e-01    1.211920753e-04   -6.705243140e-05    0.000000000e+00    0.000000000e+00    0.000000000e+00    0.000000000e+00
      126572257   -8.819066286e-01   -3.810392022e-01    9.556673467e-05   -6.675161421e-05    0.000000000e+00    0.000000000e+00    0.000000000e+00    0.000000000e+00
      128134754   -8.934199214e-01   -3.553789854e-01    1.154914498e-04   -5.889125168e-05    0.000000000e+00    0.000000000e+00    0.000000000e+00    0.000000000e+00
      129697251   -9.032216668e-01   -3.284932971e-01    8.151587099e-05   -9.041465819e-05    0.000000000e+00    0.000000000e+00    0.000000000e+00    0.000000000e+00
      131259748   -9.129574895e-01   -3.020455837e-01    7.549021393e-05   -3.674905747e-05    0.000000000e+00    0.000000000e+00    0.000000000e+00    0.000000000e+00
      132822245   -9.221599102e-01   -2.754571438e-01    9.139347821e-05   -1.015011221e-04    0.000000000e+00    0.000000000e+00    0.000000000e+00    0.000000000e+00
      134384742   -9.306650758e-01   -2.481648028e-01    9.477790445e-05   -1.228637993e-04    0.000000000e+00    0.000000000e+00    0.000000000e+00    0.000000000e+00
      135947239   -9.373328686e-01   -2.208957374e-01    8.634291589e-05   -9.111315012e-05    0.000000000e+00    0.000000000e+00    0.000000000e+00    0.000000000e+00
      137509736   -9.448234439e-01   -1.935146749e-01    6.822869182e-05   -9.010825306e-05    0.000000000e+00    0.000000000e+00    0.000000000e+00    0.000000000e+00
      139072233   -9.505722523e-01   -1.657798886e-01    9.115878493e-05   -1.161210239e-04    0.000000000e+00    0.000000000e+00    0.000000000e+00    0.000000000e+00
      140634730   -9.551337361e-01   -1.372018009e-01    7.633585483e-05   -1.078918576e-04    0.000000000e+00    0.000000000e+00    0.000000000e+00    0.000000000e+00
      142197227   -9.594416022e-01   -1.089773253e-01    5.172938108e-05   -7.587205619e-05    0.000000000e+00    0.000000000e+00    0.000000000e+00    0.000000000e+00
      143759724   -9.632945061e-01   -8.070901036e-02    5.863141268e-05   -1.058792695e-04    0.000000000e+00    0.000000000e+00    0.000000000e+00    0.000000000e+00
      145322221   -9.652518034e-01   -5.208590627e-02    5.350168794e-05   -1.040799543e-04    0.000000000e+00    0.000000000e+00    0.000000000e+00    0.000000000e+00
      146884718   -9.669770598e-01   -2.330182120e-02    5.726795644e-05   -7.926020771e-05    0.000000000e+00    0.000000000e+00    0.000000000e+00    0.000000000e+00
      148447215   -9.679197073e-01    5.667212419e-03    8.195266128e-05   -1.224894077e-04    0.000000000e+00    0.000000000e+00    0.000000000e+00    0.000000000e+00
      150009712   -9.679399729e-01    3.445839882e-02    7.074698806e-05   -1.407051459e-04    0.000000000e+00    0.000000000e+00    0.000000000e+00    0.000000000e+00
      151572209   -9.670511484e-01    6.365779042e-02    7.033348083e-05   -1.067174599e-04    0.000000000e+00    0.000000000e+00    0.000000000e+00    0.000000000e+00
      153134706   -9.651888609e-01    9.287381917e-02    5.279202014e-05   -1.220516860e-04    0.000000000e+00    0.000000000e+00    0.000000000e+00    0.000000000e+00
      154697203   -9.626567364e-01    1.218969822e-01    6.692949682e-05   -8.969008923e-05    0.000000000e+00    0.000000000e+00    0.000000000e+00    0.000000000e+00
      156259700   -9.590686560e-01    1.509343237e-01    6.052292883e-05   -1.193862408e-04    0.000000000e+00    0.000000000e+00    0.000000000e+00    0.000000000e+00
      157822197   -9.546283484e-01    1.803898960e-01    7.354374975e-05   -1.342631876e-04    0.000000000e+00    0.000000000e+00    0.000000000e+00    0.000000000e+00
      159384694   -9.490029812e-01    2.096716017e-01    5.890708417e-05   -1.171305776e-04    0.000000000e+00    0.000000000e+00    0.000000000e+00    0.000000000e+00
      160947191   -9.430348873e-01    2.386670411e-01    3.302283585e-05   -1.150118187e-04    0.000000000e+00    0.000000000e+00    0.000000000e+00    0.000000000e+00
      162509688   -9.355666041e-01    2.672059834e-01    6.100535393e-05   -1.514032483e-04    0.000000000e+00    0.000000000e+00    0.000000000e+00    0.000000000e+00
      164072185   -9.277263284e-01    2.960689962e-01    2.967286855e-05   -1.331251115e-04    0.000000000e+00    0.000000000e+00    0.000000000e+00    0.000000000e+00
      165634682   -9.181306958e-01    3.248118758e-01    3.800727427e-05   -1.526335254e-04    0.000000000e+00    0.000000000e+00    0.000000000e+00    0.000000000e+00
      167197179   -9.086777568e-01    3.535198271e-01    7.337518036e-05   -1.294072717e-04    0.000000000e+00    0.000000000e+00    0.000000000e+00    0.000000000e+00
      168759676   -8.971099257e-01    3.819669187e-01    4.029832780e-05   -1.378534362e-04    0.000000000e+00    0.000000000e+00    0.000000000e+00    0.000000000e+00
      170322173   -8.849446177e-01    4.101746976e-01    6.240792572e-06   -1.613330096e-04    0.000000000e+00    0.000000000e+00    0.000000000e+00    0.000000000e+00
      171884670   -8.726206422e-01    4.375470281e-01    2.747587860e-05   -1.390818506e-04    0.000000000e+00    0.000000000e+00    0.000000000e+00    0.000000000e+00
      173447167   -8.587138653e-01    4.654544592e-01    2.582930028e-05   -1.640683040e-04    0.000000000e+00    0.000000000e+00    0.000000000e+00    0.000000000e+00
      175009664   -8.438125849e-01    4.925998449e-01    2.307910472e-05   -1.807110384e-04    0.000000000e+00    0.000000000e+00    0.000000000e+00    0.000000000e+00
      176572161   -8.277934194e-01    5.192638636e-01    2.848170698e-05   -1.075277105e-04    0.000000000e+00    0.000000000e+00    0.000000000e+00    0.000000000e+00
      178134658   -8.114113212e-01    5.458169580e-01    1.693330705e-05   -1.726951450e-04    0.000000000e+00    0.000000000e+00    0.000000000e+00    0.000000000e+00
      179697155   -7.935087085e-01    5.718970895e-01    1.479871571e-05   -1.267716289e-04    0.000000000e+00    0.000000000e+00    0.000000000e+00    0.000000000e+00
      181259652   -7.749128938e-01    5.973584652e-01    1.045595855e-05   -1.775175333e-04    0.000000000e+00    0.000000000e+00    0.000000000e+00    0.000000000e+00
