! NanoVNA-App
! Date: 2025-10-01 20:21:20
! Start: 10kHz Stop: 6.3GHz Points: 1024
! S-Parameter data: F S11 S21 S12 S22
# Hz S RI R 50
!     Frequency           S11_Real           S11_Imag           S21_Real           S21_Imag           S12_Real           S12_Imag           S22_Real           S22_Imag
          10000    1.003139377e+00   -5.742786452e-04   -4.619359970e-06   -6.752088666e-07    0.000000000e+00    0.000000000e+00    0.000000000e+00    0.000000000e+00
        6168348    9.858615994e-01   -1.432452500e-01   -1.432653517e-05   -1.057051122e-06    0.000000000e+00    0.000000000e+00    0.000000000e+00    0.000000000e+00
       12326696    9.541648626e-01   -2.820633650e-01   -1.929327846e-05   -8.272938430e-06    0.000000000e+00    0.000000000e+00    0.000000000e+00    0.000000000e+00
       18485044    9.041361809e-01   -4.143266082e-01   -1.343712211e-05    5.001202226e-07    0.000000000e+00    0.000000000e+00    0.000000000e+00    0.000000000e+00
       24643392    8.377119899e-01   -5.369533300e-01    1.784227788e-05    3.544613719e-05    0.000000000e+00    0.000000000e+00    0.000000000e+00    0.000000000e+00
       30801740    7.555252910e-01   -6.489431262e-01   -4.672445357e-06    1.025572419e-05    0.000000000e+00    0.000000000e+00    0.000000000e+00    0.000000000e+00
       36960088    6.587957740e-01   -7.473328710e-01    4.573445767e-05    4.336144775e-05    0.000000000e+00    0.000000000e+00    0.000000000e+00    0.000000000e+00
       43118436    5.519313812e-01   -8.314947486e-01    4.509743303e-05    1.856684685e-05    0.000000000e+00    0.000000000e+00    0.000000000e+00    0.000000000e+00
       49276784    4.355872273e-01   -8.993705511e-01    2.357084304e-05    9.369105101e-06    0.000000000e+00    0.000000000e+00    0.000000000e+00    0.000000000e+00
       55435132    3.118995726e-01   -9.514380693e-01    7.298775017e-06    8.009374142e-06    0.000000000e+00    0.000000000e+00    0.000000000e+00    0.000000000e+00
       61593480    1.837463379e-01   -9.869199395e-01    2.480857074e-05    1.358706504e-05    0.000000000e+00    0.000000000e+00    0.000000000e+00    0.000000000e+00
       67751828    5.398263410e-02   -1.003968954e+00    3.479886800e-05    3.085471690e-05    0.000000000e+00    0.000000000e+00    0.000000000e+00    0.000000000e+00
       73910176   -7.647612691e-02   -1.005437016e+00    2.803467214e-05    1.522339880e-05    0.000000000e+00    0.000000000e+00    0.000000000e+00    0.000000000e+00
       80068524   -2.043591589e-01   -9.895129204e-01    6.613787264e-05   -3.350619227e-05    0.000000000e+00    0.000000000e+00    0.000000000e+00    0.000000000e+00
       86226872   -3.290072978e-01   -9.589331746e-01    8.017010987e-05   -1.672655344e-06    0.000000000e+00    0.000000000e+00    0.000000000e+00    0.000000000e+00
       92385220   -4.478805065e-01   -9.126374722e-01    4.675704986e-05   -2.243556082e-06    0.000000000e+00    0.000000000e+00    0.000000000e+00    0.000000000e+00
       98543568   -5.585682988e-01   -8.523718715e-01    1.067826524e-04    1.597125083e-05    0.000000000e+00    0.000000000e+00    0.000000000e+00    0.000000000e+00
      104701916   -6.301293373e-01   -7.195835710e-01    7.271394134e-05   -1.896452159e-05    0.000000000e+00    0.000000000e+00    0.000000000e+00    0.000000000e+00
      110860264   -7.094371319e-01   -6.406624317e-01    9.510014206e-05   -3.786478192e-05    0.000000000e+00    0.000000000e+00    0.000000000e+00    0.000000000e+00
      117018612   -7.793936729e-01   -5.536137223e-01    9.318999946e-05   -3.740657121e-05    0.000000000e+00    0.000000000e+00    0.000000000e+00    0.000000000e+00
      123176960   -8.386976719e-01   -4.589862823e-01    1.089908183e-04   -6.490759552e-05    0.000000000e+00    0.000000000e+00    0.000000000e+00    0.000000000e+00
      129335308   -8.871064782e-01   -3.584808111e-01    6.908550858e-05   -4.734843969e-05    0.000000000e+00    0.000000000e+00    0.000000000e+00    0.000000000e+00
      135493656   -9.241492152e-01   -2.530908883e-01    4.531722516e-05   -7.226597518e-05    0.000000000e+00    0.000000000e+00    0.000000000e+00    0.000000000e+00
      141652004   -9.490503669e-01   -1.436557323e-01    9.140837938e-05   -8.701626211e-05    0.000000000e+00    0.000000000e+00    0.000000000e+00    0.000000000e+00
      147810352   -9.602547288e-01   -3.020682186e-02    6.578117609e-05   -1.017786562e-04    0.000000000e+00    0.000000000e+00    0.000000000e+00    0.000000000e+00
      153968700   -9.583928585e-01    8.433575928e-02    7.442105561e-05   -1.156879589e-04    0.000000000e+00    0.000000000e+00    0.000000000e+00    0.000000000e+00
      160127048   -9.426649213e-01    1.998864263e-01    5.446746945e-05   -1.169275492e-04    0.000000000e+00    0.000000000e+00    0.000000000e+00    0.000000000e+00
      166285396   -9.126611352e-01    3.138681650e-01    3.396160901e-05   -9.230896831e-05    0.000000000e+00    0.000000000e+00    0.000000000e+00    0.000000000e+00
      172443744   -8.673546314e-01    4.253641665e-01   -4.572793841e-06   -1.227604225e-04    0.000000000e+00    0.000000000e+00    0.000000000e+00    0.000000000e+00
      178602092   -8.064985275e-01    5.317569971e-01    2.333242446e-05   -1.278221607e-04    0.000000000e+00    0.000000000e+00    0.000000000e+00    0.000000000e+00
      184760440   -7.314044833e-01    6.305493712e-01    8.816830814e-06   -1.220870763e-04    0.000000000e+00    0.000000000e+00    0.000000000e+00    0.000000000e+00
      190918788   -6.423903108e-01    7.201200128e-01   -8.326023817e-06   -1.486176625e-04    0.000000000e+00    0.000000000e+00    0.000000000e+00    0.000000000e+00
      197077136   -5.403071046e-01    7.980204225e-01   -3.215856850e-06   -1.271581277e-04    0.000000000e+00    0.000000000e+00    0.000000000e+00    0.000000000e+00
      203235484   -4.261994660e-01    8.617140055e-01   -1.411512494e-05   -1.714574173e-04    0.000000000e+00    0.000000000e+00    0.000000000e+00    0.000000000e+00
      209393832   -3.025683761e-01    9.088239670e-01   -1.085177064e-04   -1.639053226e-04    0.000000000e+00    0.000000000e+00    0.000000000e+00    0.000000000e+00
      215552180   -1.724526286e-01    9.387236238e-01   -1.180451363e-04   -1.865001395e-04    0.000000000e+00    0.000000000e+00    0.000000000e+00    0.000000000e+00
      221710528   -3.774043545e-02    9.488356709e-01   -1.001907513e-04   -1.463890076e-04    0.000000000e+00    0.000000000e+00    0.000000000e+00    0.000000000e+00
      227868876    9.784473479e-02    9.387664795e-01   -1.761140302e-04   -1.247515902e-04    0.000000000e+00    0.000000000e+00    0.000000000e+00    0.000000000e+00
      234027224    2.314318866e-01    9.084869027e-01   -1.877089962e-04   -1.283325255e-04    0.000000000e+00    0.000000000e+00    0.000000000e+00    0.000000000e+00
      240185572    3.584697843e-01    8.585463166e-01   -1.900112256e-04   -1.045949757e-04    0.000000000e+00    0.000000000e+00    0.000000000e+00    0.000000000e+00
      246343920    4.765667617e-01    7.915816903e-01   -2.172216773e-04   -4.994496703e-05    0.000000000e+00    0.000000000e+00    0.000000000e+00    0.000000000e+00
      252502268    5.834036469e-01    7.074309587e-01   -2.039242536e-04   -1.197569072e-04    0.000000000e+00    0.000000000e+00    0.000000000e+00    0.000000000e+00
      258660616    6.759165525e-01    6.106020808e-01   -1.983493567e-04   -4.978012294e-05    0.000000000e+00    0.000000000e+00    0.000000000e+00    0.000000000e+00
      264818964    7.525260448e-01    5.014269948e-01   -1.990348101e-04   -2.471636981e-05    0.000000000e+00    0.000000000e+00    0.000000000e+00    0.000000000e+00
      270977312    8.120970130e-01    3.840392232e-01   -2.050641924e-04   -1.313723624e-05    0.000000000e+00    0.000000000e+00    0.000000000e+00    0.000000000e+00
      277135660    8.544295430e-01    2.613857090e-01   -2.317978069e-04    1.073721796e-05    0.000000000e+00    0.000000000e+00    0.000000000e+00    0.000000000e+00
      283294008    8.788768053e-01    1.362011880e-01   -2.229027450e-04    5.362089723e-05    0.000000000e+00    0.000000000e+00    0.000000000e+00    0.000000000e+00
      289452356    8.855836391e-01    1.021047868e-02   -2.547651529e-04    8.970685303e-05    0.000000000e+00    0.000000000e+00    0.000000000e+00    0.000000000e+00
      295610704    8.765158653e-01   -1.129534915e-01   -2.523995936e-04    1.133317128e-04    0.000000000e+00    0.000000000e+00    0.000000000e+00    0.000000000e+00
      301769052    8.516635299e-01   -2.317973971e-01   -2.255234867e-04    1.470725983e-04    0.000000000e+00    0.000000000e+00    0.000000000e+00    0.000000000e+00
      307927400    8.119962215e-01   -3.451217413e-01   -2.177469432e-04    1.763952896e-04    0.000000000e+00    0.000000000e+00    0.000000000e+00    0.000000000e+00
      314085748    7.600651979e-01   -4.512517452e-01   -1.738574356e-04    1.663975418e-04    0.000000000e+00    0.000000000e+00    0.000000000e+00    0.000000000e+00
      320244096    6.962980032e-01   -5.480083823e-01   -1.824675128e-04    2.039438114e-04    0.000000000e+00    0.000000000e+00    0.000000000e+00    0.000000000e+00
      326402444    6.217612624e-01   -6.356050968e-01   -1.652259380e-04    1.993831247e-04    0.000000000e+00    0.000000000e+00    0.000000000e+00    0.000000000e+00
      332560792    5.389090180e-01   -7.125706673e-01   -1.287609339e-04    2.201730385e-04    0.000000000e+00    0.000000000e+00    0.000000000e+00    0.000000000e+00
      338719140    4.478351474e-01   -7.786605954e-01   -7.691048086e-05    2.821655944e-04    0.000000000e+00    0.000000000e+00    0.000000000e+00    0.000000000e+00
      344877488    3.507974744e-01   -8.335765600e-01   -1.186374575e-04    2.734130248e-04    0.000000000e+00    0.000000000e+00    0.000000000e+00    0.000000000e+00
      351035836    2.481633574e-01   -8.763789535e-01   -5.376338959e-05    2.660201862e-04    0.000000000e+00    0.000000000e+00    0.000000000e+00    0.000000000e+00
      357194184    1.421906799e-01   -9.072480798e-01   -4.149042070e-05    2.656234428e-04    0.000000000e+00    0.000000000e+00    0.000000000e+00    0.000000000e+00
      363352532    3.269378468e-02   -9.244565368e-01    3.582611680e-05    2.900622785e-04    0.000000000e+00    0.000000000e+00    0.000000000e+00    0.000000000e+00
      369510880   -7.753357291e-02   -9.297528863e-01    4.438497126e-05    2.996390685e-04    0.000000000e+00    0.000000000e+00    0.000000000e+00    0.000000000e+00
      375669228   -1.874272078e-01   -9.213468432e-01    1.066150144e-04    3.316560760e-04    0.000000000e+00    0.000000000e+00    0.000000000e+00    0.000000000e+00
      381827576   -2.968199551e-01   -9.006160498e-01    1.211538911e-04    2.910615876e-04    0.000000000e+00    0.000000000e+00    0.000000000e+00    0.000000000e+00
      387985924   -4.042318761e-01   -8.658242226e-01    1.176092774e-04    3.024721518e-04    0.000000000e+00    0.000000000e+00    0.000000000e+00    0.000000000e+00
      394144272   -5.070611835e-01   -8.183079362e-01    1.981016248e-04    2.836193889e-04    0.000000000e+00    0.000000000e+00    0.000000000e+00    0.000000000e+00
      400302620   -6.041158438e-01   -7.569652796e-01    2.140104771e-04    2.808244899e-04    0.000000000e+00    0.000000000e+00    0.000000000e+00    0.000000000e+00
      406460968   -6.936931610e-01   -6.846490502e-01    2.120872959e-04    2.497173846e-04    0.000000000e+00    0.000000000e+00    0.000000000e+00    0.000000000e+00
      412619316   -7.745781541e-01   -6.000798941e-01    2.269996330e-04    2.321302891e-04    0.000000000e+00    0.000000000e+00    0.000000000e+00    0.000000000e+00
      418777664   -8.447411656e-01   -5.040007830e-01    2.795439214e-04    2.073515207e-04    0.000000000e+00    0.000000000e+00    0.000000000e+00    0.000000000e+00
      424936012   -9.020785093e-01   -3.994413614e-01    3.074817359e-04    1.626545563e-04    0.000000000e+00    0.000000000e+00    0.000000000e+00    0.000000000e+00
      431094360   -9.447857141e-01   -2.856779397e-01    3.595668823e-04    1.348964870e-04    0.000000000e+00    0.000000000e+00    0.000000000e+00    0.000000000e+00
      437252708   -9.728106856e-01   -1.657117754e-01    3.657555208e-04    9.618233889e-05    0.000000000e+00    0.000000000e+00    0.000000000e+00    0.000000000e+00
      443411056   -9.833657146e-01   -4.342510179e-02    4.032859579e-04    4.288833588e-05    0.000000000e+00    0.000000000e+00    0.000000000e+00    0.000000000e+00
      449569404   -9.767009020e-01    8.191588521e-02    3.606220707e-04    4.128459841e-05    0.000000000e+00    0.000000000e+00    0.000000000e+00    0.000000000e+00
      455727752   -9.526103139e-01    2.067839205e-01    3.957422450e-04   -1.045130193e-05    0.000000000e+00    0.000000000e+00    0.000000000e+00    0.000000000e+00
      461886100   -9.110642672e-01    3.258170485e-01    3.859754652e-04   -7.196702063e-05    0.000000000e+00    0.000000000e+00    0.000000000e+00    0.000000000e+00
      468044448   -8.517120481e-01    4.388007820e-01    4.250239581e-04   -1.459186897e-04    0.000000000e+00    0.000000000e+00    0.000000000e+00    0.000000000e+00
      474202796   -7.765058875e-01    5.422901511e-01    3.973674029e-04   -1.698527485e-04    0.000000000e+00    0.000000000e+00    0.000000000e+00    0.000000000e+00
      480361144   -6.875930429e-01    6.327517629e-01    3.567896783e-04   -2.483269200e-04    0.000000000e+00    0.000000000e+00    0.000000000e+00    0.000000000e+00
      486519492   -5.862258673e-01    7.109407187e-01    4.071332514e-04   -2.677859738e-04    0.000000000e+00    0.000000000e+00    0.000000000e+00    0.000000000e+00
      492677840   -4.752799869e-01    7.728608251e-01    4.174793139e-04   -3.434633836e-04    0.000000000e+00    0.000000000e+00    0.000000000e+00    0.000000000e+00
      498836188   -3.579099774e-01    8.180540204e-01    3.471504897e-04   -3.694100305e-04    0.000000000e+00    0.000000000e+00    0.000000000e+00    0.000000000e+00
      504994536   -2.357626259e-01    8.451012969e-01    2.492228523e-04   -4.228129983e-04    0.000000000e+00    0.000000000e+00    0.000000000e+00    0.000000000e+00
      511152884   -1.126613617e-01    8.543368578e-01    2.194344997e-04   -3.710174933e-04    0.000000000e+00    0.000000000e+00    0.000000000e+00    0.000000000e+00
      517311232    1.024019625e-02    8.469572663e-01    1.404499635e-04   -4.563145339e-04    0.000000000e+00    0.000000000e+00    0.000000000e+00    0.000000000e+00
      523469580    1.274611056e-01    8.237672448e-01    8.293148130e-05   -4.866020754e-04    0.000000000e+00    0.000000000e+00    0.000000000e+00    0.000000000e+00
      529627928    2.405567765e-01    7.841302156e-01    3.733858466e-05   -5.151461810e-04    0.000000000e+00    0.000000000e+00    0.000000000e+00    0.000000000e+00
      535786276    3.451422751e-01    7.305916548e-01   -8.057802916e-06   -5.384460092e-04    0.000000000e+00    0.000000000e+00    0.000000000e+00    0.000000000e+00
      541944624    4.402301311e-01    6.645054817e-01   -5.146395415e-05   -4.960158840e-04    0.000000000e+00    0.000000000e+00    0.000000000e+00    0.000000000e+00
      548102972    5.249463320e-01    5.883544683e-01   -9.752810001e-05   -5.020890385e-04    0.000000000e+00    0.000000000e+00    0.000000000e+00    0.000000000e+00
      554261320    5.987123847e-01    5.028305650e-01   -1.494763419e-04   -4.904782400e-04    0.000000000e+00    0.000000000e+00    0.000000000e+00    0.000000000e+00
      560419668    6.595647335e-01    4.103379250e-01   -2.070069313e-04   -4.394827411e-04    0.000000000e+00    0.000000000e+00    0.000000000e+00    0.000000000e+00
      566578016    7.082919478e-01    3.117171228e-01   -2.659615129e-04   -4.051895812e-04    0.000000000e+00    0.000000000e+00    0.000000000e+00    0.000000000e+00
      572736364    7.438987494e-01    2.085634023e-01   -3.472333774e-04   -4.045907408e-04    0.000000000e+00    0.000000000e+00    0.000000000e+00    0.000000000e+00
      578894712    7.666668296e-01    1.031702980e-01   -3.574043512e-04   -4.016319290e-04    0.000000000e+00    0.000000000e+00    0.000000000e+00    0.000000000e+00
      585053060    7.761614919e-01   -2.661245875e-03   -4.164595157e-04   -3.404617310e-04    0.000000000e+00    0.000000000e+00    0.000000000e+00    0.000000000e+00
      591211408    7.725123167e-01   -1.089184657e-01   -4.590991884e-04   -3.504315391e-04    0.000000000e+00    0.000000000e+00    0.000000000e+00    0.000000000e+00
      597369756    7.572085857e-01   -2.124479264e-01   -4.417113960e-04   -3.140866756e-04    0.000000000e+00    0.000000000e+00    0.000000000e+00    0.000000000e+00
      603528104    7.286988497e-01   -3.141771853e-01   -5.195736885e-04   -2.268906683e-04    0.000000000e+00    0.000000000e+00    0.000000000e+00    0.000000000e+00
      609686452    6.882459521e-01   -4.110875130e-01   -5.033314228e-04   -2.205902711e-04    0.000000000e+00    0.000000000e+00    0.000000000e+00    0.000000000e+00
      615844800    6.369017959e-01   -5.027315021e-01   -5.525546148e-04   -1.185154542e-04    0.000000000e+00    0.000000000e+00    0.000000000e+00    0.000000000e+00
      622003148    5.739378929e-01   -5.878152847e-01   -5.904389545e-04   -7.278192788e-05    0.000000000e+00    0.000000000e+00    0.000000000e+00    0.000000000e+00
      628161496    5.027065873e-01   -6.636349559e-01   -5.563851446e-04   -2.677645534e-05    0.000000000e+00    0.000000000e+00    0.000000000e+00    0.000000000e+00
      634319844    4.211353660e-01   -7.323386669e-01   -6.267856807e-04    1.767836511e-05    0.000000000e+00    0.000000000e+00    0.000000000e+00    0.000000000e+00
      640478192    3.318950236e-01   -7.893838286e-01   -5.732392892e-04    8.297525346e-05    0.000000000e+00    0.000000000e+00    0.000000000e+00    0.000000000e+00
      646636540    2.338983566e-01   -8.356226087e-01   -5.538286641e-04    1.859469339e-04    0.000000000e+00    0.000000000e+00    0.000000000e+00    0.000000000e+00
      652794888    1.308452189e-01   -8.698481321e-01   -5.725733936e-04    2.295030281e-04    0.000000000e+00    0.000000000e+00    0.000000000e+00    0.000000000e+00
      658953236    2.428227663e-02   -8.897286654e-01   -6.055738777e-04    2.932306379e-04    0.000000000e+00    0.000000000e+00    0.000000000e+00    0.000000000e+00
      665111584   -8.588480204e-02   -8.961554170e-01   -5.547581241e-04    3.730785102e-04    0.000000000e+00    0.000000000e+00    0.000000000e+00    0.000000000e+00
      671269932   -1.970586032e-01   -8.879008889e-01   -5.156705156e-04    4.313345999e-04    0.000000000e+00    0.000000000e+00    0.000000000e+00    0.000000000e+00
      677428280   -3.066774607e-01   -8.646293283e-01   -5.052546039e-04    5.216468126e-04    0.000000000e+00    0.000000000e+00    0.000000000e+00    0.000000000e+00
      683586628   -4.133534133e-01   -8.263661861e-01   -4.371842369e-04    5.594920367e-04    0.000000000e+00    0.000000000e+00    0.000000000e+00    0.000000000e+00
      689744976   -5.138951540e-01   -7.734216452e-01   -3.775022924e-04    6.097732112e-04    0.000000000e+00    0.000000000e+00    0.000000000e+00    0.000000000e+00
      695903324   -6.071602702e-01   -7.056760788e-01   -3.155330196e-04    6.811209023e-04    0.000000000e+00    0.000000000e+00    0.000000000e+00    0.000000000e+00
      702061672   -6.918537021e-01   -6.249557137e-01   -2.041878179e-04    7.003564388e-04    0.000000000e+00    0.000000000e+00    0.000000000e+00    0.000000000e+00
      708220020   -7.626945972e-01   -5.342708230e-01   -1.586871222e-04    7.397281006e-04    0.000000000e+00    0.000000000e+00    0.000000000e+00    0.000000000e+00
      714378368   -8.211039901e-01   -4.339734018e-01   -3.258977085e-05    7.713055238e-04    0.000000000e+00    0.000000000e+00    0.000000000e+00    0.000000000e+00
