! NanoVNA-App
! Date: 2025-10-01 20:14:30
! Start: 10kHz Stop: 6GHz Points: 1024
! S-Parameter data: F S11 S21 S12 S22
# Hz S RI R 50
!     Frequency           S11_Real           S11_Imag           S21_Real           S21_Imag           S12_Real           S12_Imag           S22_Real           S22_Imag
          10000    1.001962781e+00    5.598310381e-04   -9.480863810e-07   -7.169321179e-06    0.000000000e+00    0.000000000e+00    0.000000000e+00    0.000000000e+00
        5875093    9.865176678e-01   -1.385197192e-01   -2.394989133e-05   -1.913495362e-05    0.000000000e+00    0.000000000e+00    0.000000000e+00    0.000000000e+00
       11740186    9.566196203e-01   -2.720539868e-01   -2.956576645e-05   -7.688067853e-06    0.000000000e+00    0.000000000e+00    0.000000000e+00    0.000000000e+00
       17605279    9.107712507e-01   -3.999176323e-01    9.554438293e-06    5.128793418e-06    0.000000000e+00    0.000000000e+00    0.000000000e+00    0.000000000e+00
       23470371    8.480458856e-01   -5.195716023e-01   -5.190260708e-06    1.929514110e-05    0.000000000e+00    0.000000000e+00    0.000000000e+00    0.000000000e+00
       29335464    7.714352608e-01   -6.297107339e-01    1.892354339e-05    3.277231008e-05    0.000000000e+00    0.000000000e+00    0.000000000e+00    0.000000000e+00
       35200557    6.807832122e-01   -7.267385721e-01    3.655068576e-05   -1.735612750e-05    0.000000000e+00    0.000000000e+00    0.000000000e+00    0.000000000e+00
       41065650    5.791404247e-01   -8.116583824e-01   -9.531155229e-06    1.772679389e-05    0.000000000e+00    0.000000000e+00    0.000000000e+00    0.000000000e+00
       46930743    4.693709314e-01   -8.813815117e-01    1.032091677e-05    7.258635014e-05    0.000000000e+00    0.000000000e+00    0.000000000e+00    0.000000000e+00
       52795836    3.514686525e-01   -9.353051782e-01   -3.935769200e-06    1.305527985e-05    0.000000000e+00    0.000000000e+00    0.000000000e+00    0.000000000e+00
       58660929    2.297871262e-01   -9.747049212e-01    4.166271538e-05    8.940696716e-06    0.000000000e+00    0.000000000e+00    0.000000000e+00    0.000000000e+00
       64526022    1.042077467e-01   -9.968945384e-01    3.878958523e-06    2.532079816e-05    0.000000000e+00    0.000000000e+00    0.000000000e+00    0.000000000e+00
       70391114   -2.057764865e-02   -1.004378080e+00    3.253482282e-05    4.431884736e-05    0.000000000e+00    0.000000000e+00    0.000000000e+00    0.000000000e+00
       76256207   -1.455076188e-01   -9.955384731e-01    2.987217158e-05    1.446623355e-05    0.000000000e+00    0.000000000e+00    0.000000000e+00    0.000000000e+00
       82121300   -2.672060430e-01   -9.726661444e-01    6.085261703e-05    3.556348383e-05    0.000000000e+00    0.000000000e+00    0.000000000e+00    0.000000000e+00
       87986393   -3.846650124e-01   -9.353935719e-01    8.995179087e-05   -3.267079592e-06    0.000000000e+00    0.000000000e+00    0.000000000e+00    0.000000000e+00
       93851486   -4.945328534e-01   -8.842340112e-01    2.985820174e-05   -9.628012776e-06    0.000000000e+00    0.000000000e+00    0.000000000e+00    0.000000000e+00
       99716579   -5.975233316e-01   -8.201870918e-01    7.967185229e-05    3.434717655e-05    0.000000000e+00    0.000000000e+00    0.000000000e+00    0.000000000e+00
      105581672   -6.573692560e-01   -6.887500286e-01    7.158517838e-05    6.156973541e-06    0.000000000e+00    0.000000000e+00    0.000000000e+00    0.000000000e+00
      111446764   -7.299198508e-01   -6.092165709e-01    7.129460573e-05   -1.300033182e-05    0.000000000e+00    0.000000000e+00    0.000000000e+00    0.000000000e+00
      117311857   -7.936135530e-01   -5.234781504e-01    4.520546645e-05    1.128111035e-05    0.000000000e+00    0.000000000e+00    0.000000000e+00    0.000000000e+00
      123176950   -8.472978473e-01   -4.312423170e-01    3.944244236e-05   -2.386607230e-05    0.000000000e+00    0.000000000e+00    0.000000000e+00    0.000000000e+00
      129042043   -8.910964131e-01   -3.341499269e-01    6.573460996e-05   -4.535447806e-05    0.000000000e+00    0.000000000e+00    0.000000000e+00    0.000000000e+00
      134907136   -9.235838652e-01   -2.317666113e-01    4.607904702e-05   -2.160575241e-05    0.000000000e+00    0.000000000e+00    0.000000000e+00    0.000000000e+00
      140772229   -9.448267817e-01   -1.259395331e-01    8.315499872e-05   -5.181040615e-05    0.000000000e+00    0.000000000e+00    0.000000000e+00    0.000000000e+00
      146637322   -9.541577101e-01   -1.770021580e-02    2.829357982e-06   -9.002536535e-05    0.000000000e+00    0.000000000e+00    0.000000000e+00    0.000000000e+00
      152502414   -9.512788057e-01    9.217917174e-02    1.384690404e-05   -8.564069867e-05    0.000000000e+00    0.000000000e+00    0.000000000e+00    0.000000000e+00
      158367507   -9.345465899e-01    2.029109895e-01    7.157213986e-06   -8.617620915e-05    0.000000000e+00    0.000000000e+00    0.000000000e+00    0.000000000e+00
      164232600   -9.058026671e-01    3.117324710e-01    2.695713192e-05   -9.454134852e-05    0.000000000e+00    0.000000000e+00    0.000000000e+00    0.000000000e+00
      170097693   -8.628727794e-01    4.185171425e-01   -5.307607353e-06   -7.681362331e-05    0.000000000e+00    0.000000000e+00    0.000000000e+00    0.000000000e+00
      175962786   -8.056070805e-01    5.200747848e-01   -6.718561053e-06   -9.655486792e-05    0.000000000e+00    0.000000000e+00    0.000000000e+00    0.000000000e+00
      181827879   -7.349305749e-01    6.159414649e-01    1.978408545e-05   -8.422415704e-05    0.000000000e+00    0.000000000e+00    0.000000000e+00    0.000000000e+00
      187692972   -6.515402794e-01    7.033690214e-01   -6.036832929e-06   -6.743241102e-05    0.000000000e+00    0.000000000e+00    0.000000000e+00    0.000000000e+00
      193558065   -5.560240149e-01    7.798749804e-01    9.455718100e-06   -8.723791689e-05    0.000000000e+00    0.000000000e+00    0.000000000e+00    0.000000000e+00
      199423157   -4.487136006e-01    8.435072303e-01   -5.504116416e-07   -1.012841240e-04    0.000000000e+00    0.000000000e+00    0.000000000e+00    0.000000000e+00
      205288250   -3.321790695e-01    8.929265141e-01   -2.140179276e-05   -1.103747636e-04    0.000000000e+00    0.000000000e+00    0.000000000e+00    0.000000000e+00
      211153343   -2.089333087e-01    9.261475801e-01   -7.066875696e-05   -1.079561189e-04    0.000000000e+00    0.000000000e+00    0.000000000e+00    0.000000000e+00
      217018436   -8.054516464e-02    9.416635633e-01   -5.472917110e-05   -1.021688804e-04    0.000000000e+00    0.000000000e+00    0.000000000e+00    0.000000000e+00
      222883529    4.924754426e-02    9.393032789e-01   -1.077139750e-04   -7.736962289e-05    0.000000000e+00    0.000000000e+00    0.000000000e+00    0.000000000e+00
      228748622    1.788586974e-01    9.178442955e-01   -1.005269587e-04   -9.470432997e-05    0.000000000e+00    0.000000000e+00    0.000000000e+00    0.000000000e+00
      234613715    3.033040464e-01    8.786346316e-01   -1.535322517e-04   -8.310563862e-05    0.000000000e+00    0.000000000e+00    0.000000000e+00    0.000000000e+00
      240478807    4.219333827e-01    8.215242028e-01   -1.552058384e-04   -4.716031253e-05    0.000000000e+00    0.000000000e+00    0.000000000e+00    0.000000000e+00
      246343900    5.301592350e-01    7.482120395e-01   -1.421133056e-04   -8.198618889e-05    0.000000000e+00    0.000000000e+00    0.000000000e+00    0.000000000e+00
      252208993    6.264790297e-01    6.615422964e-01   -1.603700221e-04   -3.495719284e-05    0.000000000e+00    0.000000000e+00    0.000000000e+00    0.000000000e+00
      258074086    7.087885141e-01    5.627465248e-01   -1.388601959e-04   -3.141909838e-05    0.000000000e+00    0.000000000e+00    0.000000000e+00    0.000000000e+00
      263939179    7.760602236e-01    4.543965161e-01   -1.456355676e-04    6.073154509e-06    0.000000000e+00    0.000000000e+00    0.000000000e+00    0.000000000e+00
      269804272    8.270535469e-01    3.393361270e-01   -1.657912508e-04    3.904569894e-05    0.000000000e+00    0.000000000e+00    0.000000000e+00    0.000000000e+00
      275669365    8.622078896e-01    2.201670408e-01   -1.656329259e-04    2.344790846e-05    0.000000000e+00    0.000000000e+00    0.000000000e+00    0.000000000e+00
      281534457    8.802775145e-01    9.917566925e-02   -1.458358020e-04    2.480670810e-05    0.000000000e+00    0.000000000e+00    0.000000000e+00    0.000000000e+00
      287399550    8.830771446e-01   -2.122009732e-02   -1.631788909e-04    5.616713315e-05    0.000000000e+00    0.000000000e+00    0.000000000e+00    0.000000000e+00
      293264643    8.705627918e-01   -1.383688599e-01   -1.483298838e-04    1.334268600e-04    0.000000000e+00    0.000000000e+00    0.000000000e+00    0.000000000e+00
      299129736    8.442386985e-01   -2.521904707e-01   -1.417351887e-04    9.080674499e-05    0.000000000e+00    0.000000000e+00    0.000000000e+00    0.000000000e+00
      304994829    8.046047091e-01   -3.595081866e-01   -1.539187506e-04    1.416066661e-04    0.000000000e+00    0.000000000e+00    0.000000000e+00    0.000000000e+00
      310859922    7.529765368e-01   -4.603285491e-01   -1.252358779e-04    1.674918458e-04    0.000000000e+00    0.000000000e+00    0.000000000e+00    0.000000000e+00
      316725015    6.910855770e-01   -5.527872443e-01   -9.444076568e-05    1.530488953e-04    0.000000000e+00    0.000000000e+00    0.000000000e+00    0.000000000e+00
      322590108    6.195359826e-01   -6.363745332e-01   -1.055430621e-04    1.650946215e-04    0.000000000e+00    0.000000000e+00    0.000000000e+00    0.000000000e+00
      328455200    5.401561856e-01   -7.102575898e-01   -6.288476288e-05    1.909276471e-04    0.000000000e+00    0.000000000e+00    0.000000000e+00    0.000000000e+00
      334320293    4.535952806e-01   -7.740684748e-01   -7.263664156e-05    2.005249262e-04    0.000000000e+00    0.000000000e+00    0.000000000e+00    0.000000000e+00
      340185386    3.611447215e-01   -8.279427290e-01   -4.082825035e-05    1.812539995e-04    0.000000000e+00    0.000000000e+00    0.000000000e+00    0.000000000e+00
      346050479    2.635903656e-01   -8.707653284e-01    1.709070057e-05    2.050306648e-04    0.000000000e+00    0.000000000e+00    0.000000000e+00    0.000000000e+00
      351915572    1.627934426e-01   -9.019187689e-01   -1.990050077e-05    2.138633281e-04    0.000000000e+00    0.000000000e+00    0.000000000e+00    0.000000000e+00
      357780665    5.870385468e-02   -9.222428799e-01    3.093760461e-05    2.010343596e-04    0.000000000e+00    0.000000000e+00    0.000000000e+00    0.000000000e+00
      363645758   -4.651460797e-02   -9.299224019e-01    4.126783460e-05    1.661377028e-04    0.000000000e+00    0.000000000e+00    0.000000000e+00    0.000000000e+00
      369510850   -1.528483331e-01   -9.266234040e-01    6.943009794e-05    2.324003726e-04    0.000000000e+00    0.000000000e+00    0.000000000e+00    0.000000000e+00
      375375943   -2.573295534e-01   -9.120477438e-01    1.206109300e-04    2.025235444e-04    0.000000000e+00    0.000000000e+00    0.000000000e+00    0.000000000e+00
      381241036   -3.612585366e-01   -8.847812414e-01    1.239189878e-04    1.306720078e-04    0.000000000e+00    0.000000000e+00    0.000000000e+00    0.000000000e+00
      387106129   -4.624858797e-01   -8.451336026e-01    1.274198294e-04    1.874230802e-04    0.000000000e+00    0.000000000e+00    0.000000000e+00    0.000000000e+00
      392971222   -5.585810542e-01   -7.948388457e-01    1.783799380e-04    1.895586029e-04    0.000000000e+00    0.000000000e+00    0.000000000e+00    0.000000000e+00
      398836315   -6.493760347e-01   -7.313180566e-01    1.741424203e-04    1.815734431e-04    0.000000000e+00    0.000000000e+00    0.000000000e+00    0.000000000e+00
      404701408   -7.331951857e-01   -6.561188102e-01    1.720096916e-04    1.111309975e-04    0.000000000e+00    0.000000000e+00    0.000000000e+00    0.000000000e+00
      410566500   -8.078210354e-01   -5.716615319e-01    2.128435299e-04    1.336513087e-04    0.000000000e+00    0.000000000e+00    0.000000000e+00    0.000000000e+00
      416431593   -8.726032376e-01   -4.759856164e-01    2.486677840e-04    8.937437087e-05    0.000000000e+00    0.000000000e+00    0.000000000e+00    0.000000000e+00
      422296686   -9.249903560e-01   -3.731051981e-01    2.290252596e-04    8.946843445e-05    0.000000000e+00    0.000000000e+00    0.000000000e+00    0.000000000e+00
      428161779   -9.646956921e-01   -2.609230876e-01    2.702008933e-04   -2.012588084e-06    0.000000000e+00    0.000000000e+00    0.000000000e+00    0.000000000e+00
      434026872   -9.898114204e-01   -1.451551467e-01    2.452544868e-04    4.216097295e-06    0.000000000e+00    0.000000000e+00    0.000000000e+00    0.000000000e+00
      439891965   -9.995465279e-01   -2.426553145e-02    2.427063882e-04   -5.448609591e-05    0.000000000e+00    0.000000000e+00    0.000000000e+00    0.000000000e+00
      445757058   -9.928034544e-01    9.795167297e-02    2.626711503e-04   -2.558343112e-05    0.000000000e+00    0.000000000e+00    0.000000000e+00    0.000000000e+00
      451622151   -9.691375494e-01    2.193512470e-01    2.023139969e-04   -4.643388093e-05    0.000000000e+00    0.000000000e+00    0.000000000e+00    0.000000000e+00
      457487243   -9.285592437e-01    3.369194269e-01    2.596694976e-04   -5.861464888e-05    0.000000000e+00    0.000000000e+00    0.000000000e+00    0.000000000e+00
      463352336   -8.723043799e-01    4.494041204e-01    2.276990563e-04   -7.140729576e-05    0.000000000e+00    0.000000000e+00    0.000000000e+00    0.000000000e+00
      469217429   -8.000305891e-01    5.530654788e-01    2.640336752e-04   -9.393878281e-05    0.000000000e+00    0.000000000e+00    0.000000000e+00    0.000000000e+00
      475082522   -7.147553563e-01    6.453418136e-01    2.384129912e-04   -1.487182453e-04    0.000000000e+00    0.000000000e+00    0.000000000e+00    0.000000000e+00
      480947615   -6.166868806e-01    7.249187827e-01    2.152333036e-04   -1.737717539e-04    0.000000000e+00    0.000000000e+00    0.000000000e+00    0.000000000e+00
      486812708   -5.077431798e-01    7.893078923e-01    1.982599497e-04   -1.629395410e-04    0.000000000e+00    0.000000000e+00    0.000000000e+00    0.000000000e+00
      492677801   -3.924274743e-01    8.388031721e-01    2.256268635e-04   -2.517374232e-04    0.000000000e+00    0.000000000e+00    0.000000000e+00    0.000000000e+00
      498542893   -2.718086541e-01    8.710723519e-01    1.894580200e-04   -2.609854564e-04    0.000000000e+00    0.000000000e+00    0.000000000e+00    0.000000000e+00
      504407986   -1.481429487e-01    8.863622546e-01    1.276265830e-04   -2.768877894e-04    0.000000000e+00    0.000000000e+00    0.000000000e+00    0.000000000e+00
      510273079   -2.587410808e-02    8.850086927e-01    9.842310101e-05   -2.900836989e-04    0.000000000e+00    0.000000000e+00    0.000000000e+00    0.000000000e+00
      516138172    9.479836375e-02    8.666337729e-01    1.108786091e-04   -3.180261701e-04    0.000000000e+00    0.000000000e+00    0.000000000e+00    0.000000000e+00
      522003265    2.106513232e-01    8.330943584e-01    6.589479744e-05   -3.403052688e-04    0.000000000e+00    0.000000000e+00    0.000000000e+00    0.000000000e+00
      527868358    3.181709051e-01    7.859393954e-01    4.842877388e-05   -3.559039906e-04    0.000000000e+00    0.000000000e+00    0.000000000e+00    0.000000000e+00
      533733451    4.186238348e-01    7.249903083e-01   -4.025176167e-05   -3.564776853e-04    0.000000000e+00    0.000000000e+00    0.000000000e+00    0.000000000e+00
      539598543    5.098278522e-01    6.528717875e-01   -2.737902105e-05   -3.389278427e-04    0.000000000e+00    0.000000000e+00    0.000000000e+00    0.000000000e+00
      545463636    5.899062753e-01    5.712312460e-01   -1.275083050e-04   -3.204019740e-04    0.000000000e+00    0.000000000e+00    0.000000000e+00    0.000000000e+00
      551328729    6.577199101e-01    4.823121428e-01   -1.128893346e-04   -3.168294206e-04    0.000000000e+00    0.000000000e+00    0.000000000e+00    0.000000000e+00
      557193822    7.138702869e-01    3.854981661e-01   -1.767827198e-04   -3.439942375e-04    0.000000000e+00    0.000000000e+00    0.000000000e+00    0.000000000e+00
      563058915    7.578263283e-01    2.847044468e-01   -1.960890368e-04   -3.002677113e-04    0.000000000e+00    0.000000000e+00    0.000000000e+00    0.000000000e+00
      568924008    7.881827950e-01    1.793561578e-01   -2.766102552e-04   -3.195945174e-04    0.000000000e+00    0.000000000e+00    0.000000000e+00    0.000000000e+00
      574789101    8.061117530e-01    7.330093533e-02   -2.876436338e-04   -2.530980855e-04    0.000000000e+00    0.000000000e+00    0.000000000e+00    0.000000000e+00
      580654194    8.116400838e-01   -3.350965306e-02   -3.562960774e-04   -2.500806004e-04    0.000000000e+00    0.000000000e+00    0.000000000e+00    0.000000000e+00
      586519286    8.045650721e-01   -1.399940550e-01   -3.268448636e-04   -2.194587141e-04    0.000000000e+00    0.000000000e+00    0.000000000e+00    0.000000000e+00
      592384379    7.851249576e-01   -2.442822456e-01   -3.430442885e-04   -2.136323601e-04    0.000000000e+00    0.000000000e+00    0.000000000e+00    0.000000000e+00
      598249472    7.545230985e-01   -3.452904522e-01   -4.303203896e-04   -1.284163445e-04    0.000000000e+00    0.000000000e+00    0.000000000e+00    0.000000000e+00
      604114565    7.116621733e-01   -4.417978227e-01   -4.592211917e-04   -1.223757863e-04    0.000000000e+00    0.000000000e+00    0.000000000e+00    0.000000000e+00
      609979658    6.582515836e-01   -5.328613520e-01   -4.306193441e-04   -9.275320917e-05    0.000000000e+00    0.000000000e+00    0.000000000e+00    0.000000000e+00
      615844751    5.941787958e-01   -6.169863343e-01   -4.655737430e-04   -5.451682955e-05    0.000000000e+00    0.000000000e+00    0.000000000e+00    0.000000000e+00
      621709844    5.201424360e-01   -6.940836310e-01   -4.876321182e-04    2.696085721e-05    0.000000000e+00    0.000000000e+00    0.000000000e+00    0.000000000e+00
      627574936    4.384250045e-01   -7.610922456e-01   -4.539787769e-04    8.192472160e-05    0.000000000e+00    0.000000000e+00    0.000000000e+00    0.000000000e+00
      633440029    3.480623364e-01   -8.183630705e-01   -4.933588207e-04    1.445235685e-04    0.000000000e+00    0.000000000e+00    0.000000000e+00    0.000000000e+00
      639305122    2.503850460e-01   -8.650549650e-01   -4.977025092e-04    1.766383648e-04    0.000000000e+00    0.000000000e+00    0.000000000e+00    0.000000000e+00
      645170215    1.476293653e-01   -8.995637894e-01   -4.470646381e-04    2.810526639e-04    0.000000000e+00    0.000000000e+00    0.000000000e+00    0.000000000e+00
      651035308    4.009941593e-02   -9.208752513e-01   -4.425458610e-04    3.132345155e-04    0.000000000e+00    0.000000000e+00    0.000000000e+00    0.000000000e+00
      656900401   -7.045241445e-02   -9.293347597e-01   -4.278561100e-04    3.559468314e-04    0.000000000e+00    0.000000000e+00    0.000000000e+00    0.000000000e+00
      662765494   -1.819126606e-01   -9.233301282e-01   -4.082508385e-04    3.943890333e-04    0.000000000e+00    0.000000000e+00    0.000000000e+00    0.000000000e+00
      668630587   -2.922652066e-01   -9.029098749e-01   -3.402866423e-04    4.890281707e-04    0.000000000e+00    0.000000000e+00    0.000000000e+00    0.000000000e+00
      674495679   -4.010852873e-01   -8.677139282e-01   -3.206869587e-04    4.990492016e-04    0.000000000e+00    0.000000000e+00    0.000000000e+00    0.000000000e+00
      680360772   -5.040095448e-01   -8.182187676e-01   -2.267165110e-04    5.919830874e-04    0.000000000e+00    0.000000000e+00    0.000000000e+00    0.000000000e+00
