! NanoVNA-App
! Date: 2025-10-30 21:05:56
! Start: 10kHz Stop: 5GHz Points: 3201
! S-Parameter data: F S11 S21 S12 S22
# Hz S RI R 50
!     Frequency           S11_Real           S11_Imag           S21_Real           S21_Imag           S12_Real           S12_Imag           S22_Real           S22_Imag
          10000    1,001991272e+00   -6,068367511e-04    2,196058631e-06   -3,854744136e-06    0,000000000e+00    0,000000000e+00    0,000000000e+00    0,000000000e+00
        1572497    9,937285781e-01   -3,787741438e-02   -2,056360245e-05    3,922451288e-05    0,000000000e+00    0,000000000e+00    0,000000000e+00    0,000000000e+00
        3134994    9,930632710e-01   -7,489307970e-02   -1,008436084e-05   -9,980984032e-06    0,000000000e+00    0,000000000e+00    0,000000000e+00    0,000000000e+00
        4697491    9,900838733e-01   -1,141382083e-01    3,547221422e-05   -1,769512892e-08    0,000000000e+00    0,000000000e+00    0,000000000e+00    0,000000000e+00
        6259988    9,839285016e-01   -1,514334381e-01   -2,381764352e-05    1,039076596e-05    0,000000000e+00    0,000000000e+00    0,000000000e+00    0,000000000e+00
        7822485    9,767463803e-01   -1,878350228e-01    1,539476216e-05    4,996638745e-05    0,000000000e+00    0,000000000e+00    0,000000000e+00    0,000000000e+00
        9384982    9,686509371e-01   -2,240365148e-01    3,274343908e-05    3,707315773e-05    0,000000000e+00    0,000000000e+00    0,000000000e+00    0,000000000e+00
       10947479    9,597944021e-01   -2,595981658e-01    6,175599992e-06   -3,529712558e-07    0,000000000e+00    0,000000000e+00    0,000000000e+00    0,000000000e+00
       12509976    9,488602877e-01   -2,955786884e-01   -5,346722901e-06    5,770660937e-05    0,000000000e+00    0,000000000e+00    0,000000000e+00    0,000000000e+00
       14072473    9,375535250e-01   -3,308119178e-01    2,942513674e-05    6,817281246e-07    0,000000000e+00    0,000000000e+00    0,000000000e+00    0,000000000e+00
       15634970    9,247729778e-01   -3,651947379e-01    8,424744010e-06    3,704894334e-05    0,000000000e+00    0,000000000e+00    0,000000000e+00    0,000000000e+00
       17197467    9,101264477e-01   -3,995552659e-01    4,337541759e-05    4,591140896e-05    0,000000000e+00    0,000000000e+00    0,000000000e+00    0,000000000e+00
       18759964    8,952329755e-01   -4,328416884e-01    4,156492651e-06    6,932672113e-05    0,000000000e+00    0,000000000e+00    0,000000000e+00    0,000000000e+00
       20322461    8,781753182e-01   -4,655457735e-01    6,325542927e-06    4,542153329e-05    0,000000000e+00    0,000000000e+00    0,000000000e+00    0,000000000e+00
       21884958    8,608195782e-01   -4,977200031e-01    5,302019417e-05    5,242601037e-05    0,000000000e+00    0,000000000e+00    0,000000000e+00    0,000000000e+00
       23447455    8,418364525e-01   -5,288488865e-01    2,782884985e-05    2,589914948e-05    0,000000000e+00    0,000000000e+00    0,000000000e+00    0,000000000e+00
       25009952    8,220679164e-01   -5,599304438e-01    1,072604209e-05    1,591816545e-05    0,000000000e+00    0,000000000e+00    0,000000000e+00    0,000000000e+00
       26572449    8,010205626e-01   -5,896821022e-01    5,866121501e-05    5,864631385e-05    0,000000000e+00    0,000000000e+00    0,000000000e+00    0,000000000e+00
       28134946    7,792840004e-01   -6,185974479e-01   -5,613081157e-06    9,038113058e-05    0,000000000e+00    0,000000000e+00    0,000000000e+00    0,000000000e+00
       29697443    7,564184070e-01   -6,468999386e-01    1,018587500e-05    8,540973067e-05    0,000000000e+00    0,000000000e+00    0,000000000e+00    0,000000000e+00
       31259940    7,326756120e-01   -6,740584970e-01    4,497449845e-05    4,521477968e-05    0,000000000e+00    0,000000000e+00    0,000000000e+00    0,000000000e+00
       32822437    7,078503370e-01   -7,000722289e-01    4,621036351e-05    4,944298416e-05    0,000000000e+00    0,000000000e+00    0,000000000e+00    0,000000000e+00
       34384934    6,823900938e-01   -7,255943418e-01    6,039999425e-05    7,575843483e-05    0,000000000e+00    0,000000000e+00    0,000000000e+00    0,000000000e+00
       35947431    6,562259197e-01   -7,496296763e-01    4,579592496e-05    8,738785982e-05    0,000000000e+00    0,000000000e+00    0,000000000e+00    0,000000000e+00
       37509928    6,292811036e-01   -7,732245922e-01    5,292426795e-05    6,970576942e-05    0,000000000e+00    0,000000000e+00    0,000000000e+00    0,000000000e+00
       39072425    6,007171273e-01   -7,957406044e-01    4,071369767e-05    4,941690713e-05    0,000000000e+00    0,000000000e+00    0,000000000e+00    0,000000000e+00
       40634922    5,726066828e-01   -8,170162439e-01    5,342345685e-05    7,726904005e-05    0,000000000e+00    0,000000000e+00    0,000000000e+00    0,000000000e+00
       42197419    5,433744788e-01   -8,368514180e-01    8,147861809e-05    6,903056055e-05    0,000000000e+00    0,000000000e+00    0,000000000e+00    0,000000000e+00
       43759916    5,132950544e-01   -8,556954861e-01    7,082894444e-05    7,284432650e-05    0,000000000e+00    0,000000000e+00    0,000000000e+00    0,000000000e+00
       45322413    4,830982089e-01   -8,737131357e-01    8,818600327e-05    9,475927800e-05    0,000000000e+00    0,000000000e+00    0,000000000e+00    0,000000000e+00
       46884910    4,528898299e-01   -8,907734752e-01    8,996576071e-05    7,435958833e-05    0,000000000e+00    0,000000000e+00    0,000000000e+00    0,000000000e+00
       48447407    4,216086864e-01   -9,057936072e-01    7,549580187e-05    8,518341929e-05    0,000000000e+00    0,000000000e+00    0,000000000e+00    0,000000000e+00
       50009904    3,898393214e-01   -9,208770394e-01    8,009001613e-05    7,122941315e-05    0,000000000e+00    0,000000000e+00    0,000000000e+00    0,000000000e+00
       51572401    3,574201763e-01   -9,341370463e-01    8,727423847e-05    7,728114724e-05    0,000000000e+00    0,000000000e+00    0,000000000e+00    0,000000000e+00
       53134898    3,248870075e-01   -9,467171431e-01    1,195762306e-04    1,221532002e-04    0,000000000e+00    0,000000000e+00    0,000000000e+00    0,000000000e+00
       54697395    2,923689187e-01   -9,578559995e-01    9,627360851e-05    5,720648915e-05    0,000000000e+00    0,000000000e+00    0,000000000e+00    0,000000000e+00
       56259892    2,590694129e-01   -9,681935906e-01    1,173680648e-04    6,636884063e-05    0,000000000e+00    0,000000000e+00    0,000000000e+00    0,000000000e+00
       57822389    2,260519415e-01   -9,774896502e-01    7,575284690e-05    4,842318594e-05    0,000000000e+00    0,000000000e+00    0,000000000e+00    0,000000000e+00
       59384886    1,932974011e-01   -9,848726988e-01    1,604538411e-04    1,088287681e-04    0,000000000e+00    0,000000000e+00    0,000000000e+00    0,000000000e+00
       60947383    1,589998901e-01   -9,912557006e-01    1,488663256e-04    7,957313210e-05    0,000000000e+00    0,000000000e+00    0,000000000e+00    0,000000000e+00
       62509880    1,253551543e-01   -9,965237379e-01    1,276154071e-04    9,653344750e-05    0,000000000e+00    0,000000000e+00    0,000000000e+00    0,000000000e+00
       64072377    9,184241295e-02   -1,001641273e+00    1,150080934e-04    9,143818170e-05    0,000000000e+00    0,000000000e+00    0,000000000e+00    0,000000000e+00
       65634874    5,771052092e-02   -1,004235506e+00    1,774365082e-04   -7,500872016e-06    0,000000000e+00    0,000000000e+00    0,000000000e+00    0,000000000e+00
       67197371    2,404119447e-02   -1,006471992e+00    1,215087250e-04    3,670714796e-05    0,000000000e+00    0,000000000e+00    0,000000000e+00    0,000000000e+00
       68759868   -1,029420830e-02   -1,008385897e+00    1,217955723e-04    5,770660937e-05    0,000000000e+00    0,000000000e+00    0,000000000e+00    0,000000000e+00
       70322365   -4,353166744e-02   -1,007202268e+00    1,979861408e-04    6,904173642e-05    0,000000000e+00    0,000000000e+00    0,000000000e+00    0,000000000e+00
       71884862   -7,699758559e-02   -1,005970359e+00    1,837536693e-04    3,318022937e-05    0,000000000e+00    0,000000000e+00    0,000000000e+00    0,000000000e+00
       73447359   -1,106226221e-01   -1,003815413e+00    1,986110583e-04    1,047179103e-05    0,000000000e+00    0,000000000e+00    0,000000000e+00    0,000000000e+00
       75009856   -1,438886374e-01   -1,000836968e+00    1,739654690e-04    5,054287612e-05    0,000000000e+00    0,000000000e+00    0,000000000e+00    0,000000000e+00
       76572353   -1,767493784e-01   -9,955978990e-01    1,895623282e-04    2,929195762e-05    0,000000000e+00    0,000000000e+00    0,000000000e+00    0,000000000e+00
       78134850   -2,090586275e-01   -9,904273748e-01    2,133669332e-04    5,827471614e-05    0,000000000e+00    0,000000000e+00    0,000000000e+00    0,000000000e+00
       79697347   -2,419592291e-01   -9,832638502e-01    2,039056271e-04    2,157874405e-05    0,000000000e+00    0,000000000e+00    0,000000000e+00    0,000000000e+00
       81259844   -2,743516564e-01   -9,762793183e-01    1,993393525e-04    1,363549381e-05    0,000000000e+00    0,000000000e+00    0,000000000e+00    0,000000000e+00
       82822341   -3,061195016e-01   -9,677082896e-01    2,147927880e-04    2,065952867e-05    0,000000000e+00    0,000000000e+00    0,000000000e+00    0,000000000e+00
       84384838   -3,378656209e-01   -9,582877755e-01    2,148663625e-04    6,074830890e-05    0,000000000e+00    0,000000000e+00    0,000000000e+00    0,000000000e+00
       85947335   -3,687137961e-01   -9,470180869e-01    2,104388550e-04   -2,139620483e-05    0,000000000e+00    0,000000000e+00    0,000000000e+00    0,000000000e+00
       87509832   -3,988241851e-01   -9,359272718e-01    2,277987078e-04    6,807968020e-07    0,000000000e+00    0,000000000e+00    0,000000000e+00    0,000000000e+00
       89072329   -4,292545021e-01   -9,232576489e-01    2,360837534e-04   -2,177804708e-05    0,000000000e+00    0,000000000e+00    0,000000000e+00    0,000000000e+00
       90634826   -4,590547085e-01   -9,094396830e-01    2,383235842e-04   -6,388872862e-07    0,000000000e+00    0,000000000e+00    0,000000000e+00    0,000000000e+00
       92197323   -4,881309867e-01   -8,954713345e-01    2,019461244e-04    5,691312253e-06    0,000000000e+00    0,000000000e+00    0,000000000e+00    0,000000000e+00
       93759820   -5,171400309e-01   -8,800855279e-01    2,422742546e-04   -3,747455776e-05    0,000000000e+00    0,000000000e+00    0,000000000e+00    0,000000000e+00
       95322317   -5,450237393e-01   -8,643565178e-01    2,114363015e-04   -1,893937588e-05    0,000000000e+00    0,000000000e+00    0,000000000e+00    0,000000000e+00
       96884814   -5,719481707e-01   -8,468683958e-01    2,432269976e-04   -3,570783883e-05    0,000000000e+00    0,000000000e+00    0,000000000e+00    0,000000000e+00
       98447311   -5,994098186e-01   -8,288189769e-01    2,150721848e-04    5,365349352e-06    0,000000000e+00    0,000000000e+00    0,000000000e+00    0,000000000e+00
      100009808   -5,996997356e-01   -7,489038110e-01    2,217162400e-04   -3,355741501e-05    0,000000000e+00    0,000000000e+00    0,000000000e+00    0,000000000e+00
      101572305   -6,218659282e-01   -7,307104468e-01    2,421466634e-04   -3,766175359e-05    0,000000000e+00    0,000000000e+00    0,000000000e+00    0,000000000e+00
      103134802   -6,436080337e-01   -7,106086016e-01    2,185506746e-04   -7,010437548e-05    0,000000000e+00    0,000000000e+00    0,000000000e+00    0,000000000e+00
      104697299   -6,641892791e-01   -6,910022497e-01    2,291379496e-04   -7,695704699e-05    0,000000000e+00    0,000000000e+00    0,000000000e+00    0,000000000e+00
      106259796   -6,847198009e-01   -6,709293723e-01    2,191504464e-04   -1,290049404e-04    0,000000000e+00    0,000000000e+00    0,000000000e+00    0,000000000e+00
      107822293   -7,045353651e-01   -6,503836513e-01    2,048742026e-04   -1,088110730e-04    0,000000000e+00    0,000000000e+00    0,000000000e+00    0,000000000e+00
      109384790   -7,239367962e-01   -6,293721199e-01    2,424335107e-04   -1,089200377e-04    0,000000000e+00    0,000000000e+00    0,000000000e+00    0,000000000e+00
      110947287   -7,421962619e-01   -6,071529984e-01    2,411445603e-04   -1,201312989e-04    0,000000000e+00    0,000000000e+00    0,000000000e+00    0,000000000e+00
      112509784   -7,603227496e-01   -5,853228569e-01    2,067750320e-04   -1,293886453e-04    0,000000000e+00    0,000000000e+00    0,000000000e+00    0,000000000e+00
      114072281   -7,773085237e-01   -5,625786185e-01    2,125501633e-04   -1,044655219e-04    0,000000000e+00    0,000000000e+00    0,000000000e+00    0,000000000e+00
      115634778   -7,938977480e-01   -5,395544767e-01    2,262610942e-04   -1,057302579e-04    0,000000000e+00    0,000000000e+00    0,000000000e+00    0,000000000e+00
      117197275   -8,096041083e-01   -5,157157183e-01    2,138912678e-04   -1,200176775e-04    0,000000000e+00    0,000000000e+00    0,000000000e+00    0,000000000e+00
      118759772   -8,244335651e-01   -4,921345413e-01    2,233246341e-04   -1,247879118e-04    0,000000000e+00    0,000000000e+00    0,000000000e+00    0,000000000e+00
      120322269   -8,387089372e-01   -4,672432840e-01    2,349605784e-04   -1,524733379e-04    0,000000000e+00    0,000000000e+00    0,000000000e+00    0,000000000e+00
      121884766   -8,525628448e-01   -4,424228966e-01    2,246499062e-04   -1,406492665e-04    0,000000000e+00    0,000000000e+00    0,000000000e+00    0,000000000e+00
      123447263   -8,658046722e-01   -4,173752367e-01    2,069156617e-04   -1,566857100e-04    0,000000000e+00    0,000000000e+00    0,000000000e+00    0,000000000e+00
      125009760   -8,783390522e-01   -3,922084570e-01    2,021770924e-04   -1,527387649e-04    0,000000000e+00    0,000000000e+00    0,000000000e+00    0,000000000e+00
      126572257   -8,900027275e-01   -3,662305474e-01    2,155825496e-04   -1,698397100e-04    0,000000000e+00    0,000000000e+00    0,000000000e+00    0,000000000e+00
      128134754   -9,004814029e-01   -3,400912583e-01    1,974776387e-04   -1,873495057e-04    0,000000000e+00    0,000000000e+00    0,000000000e+00    0,000000000e+00
      129697251   -9,102922082e-01   -3,130098283e-01    2,005090937e-04   -2,173166722e-04    0,000000000e+00    0,000000000e+00    0,000000000e+00    0,000000000e+00
      131259748   -9,196175933e-01   -2,859317660e-01    1,824507490e-04   -1,851497218e-04    0,000000000e+00    0,000000000e+00    0,000000000e+00    0,000000000e+00
      132822245   -9,281675816e-01   -2,590059340e-01    2,200482413e-04   -2,397932112e-04    0,000000000e+00    0,000000000e+00    0,000000000e+00    0,000000000e+00
      134384742   -9,362624288e-01   -2,317819297e-01    1,986538991e-04   -2,396069467e-04    0,000000000e+00    0,000000000e+00    0,000000000e+00    0,000000000e+00
      135947239   -9,436306357e-01   -2,044172883e-01    1,791212708e-04   -2,138195559e-04    0,000000000e+00    0,000000000e+00    0,000000000e+00    0,000000000e+00
      137509736   -9,491981864e-01   -1,760779172e-01    2,171183005e-04   -2,253735438e-04    0,000000000e+00    0,000000000e+00    0,000000000e+00    0,000000000e+00
      139072233   -9,552166462e-01   -1,480716765e-01    1,598037779e-04   -2,226801589e-04    0,000000000e+00    0,000000000e+00    0,000000000e+00    0,000000000e+00
      140634730   -9,592258334e-01   -1,196380332e-01    1,786909997e-04   -2,402858809e-04    0,000000000e+00    0,000000000e+00    0,000000000e+00    0,000000000e+00
      142197227   -9,633362889e-01   -9,120422602e-02    1,758625731e-04   -2,403371036e-04    0,000000000e+00    0,000000000e+00    0,000000000e+00    0,000000000e+00
      143759724   -9,666354060e-01   -6,251177937e-02    1,724278554e-04   -2,325577661e-04    0,000000000e+00    0,000000000e+00    0,000000000e+00    0,000000000e+00
      145322221   -9,681472182e-01   -3,330605477e-02    2,037296072e-04   -2,597160637e-04    0,000000000e+00    0,000000000e+00    0,000000000e+00    0,000000000e+00
      146884718   -9,696093798e-01   -4,353548400e-03    1,215096563e-04   -2,667028457e-04    0,000000000e+00    0,000000000e+00    0,000000000e+00    0,000000000e+00
      148447215   -9,695573449e-01    2,492506057e-02    2,003135160e-04   -2,554142848e-04    0,000000000e+00    0,000000000e+00    0,000000000e+00    0,000000000e+00
      150009712   -9,693648815e-01    5,387355015e-02    1,529939473e-04   -2,615563571e-04    0,000000000e+00    0,000000000e+00    0,000000000e+00    0,000000000e+00
      151572209   -9,679926634e-01    8,333651721e-02    1,486213878e-04   -3,070468083e-04    0,000000000e+00    0,000000000e+00    0,000000000e+00    0,000000000e+00
      153134706   -9,659934044e-01    1,125066504e-01    1,349598169e-04   -3,131255507e-04    0,000000000e+00    0,000000000e+00    0,000000000e+00    0,000000000e+00
      154697203   -9,623123407e-01    1,420569122e-01    1,023514196e-04   -3,062402830e-04    0,000000000e+00    0,000000000e+00    0,000000000e+00    0,000000000e+00
      156259700   -9,586485028e-01    1,713561714e-01    1,164497808e-04   -2,911789343e-04    0,000000000e+00    0,000000000e+00    0,000000000e+00    0,000000000e+00
      157822197   -9,537308812e-01    2,004734278e-01    1,483969390e-04   -3,091003746e-04    0,000000000e+00    0,000000000e+00    0,000000000e+00    0,000000000e+00
      159384694   -9,479942918e-01    2,299605608e-01    1,173466444e-04   -3,351531923e-04    0,000000000e+00    0,000000000e+00    0,000000000e+00    0,000000000e+00
      160947191   -9,400066137e-01    2,597030103e-01    1,127645373e-04   -3,186902031e-04    0,000000000e+00    0,000000000e+00    0,000000000e+00    0,000000000e+00
      162509688   -9,319845438e-01    2,883324921e-01    1,123603433e-04   -3,372924402e-04    0,000000000e+00    0,000000000e+00    0,000000000e+00    0,000000000e+00
      164072185   -9,232575297e-01    3,172916174e-01    9,166169912e-05   -3,651883453e-04    0,000000000e+00    0,000000000e+00    0,000000000e+00    0,000000000e+00
      165634682   -9,138184190e-01    3,461020887e-01    9,204261005e-05   -3,537414595e-04    0,000000000e+00    0,000000000e+00    0,000000000e+00    0,000000000e+00
      167197179   -9,029846191e-01    3,745402694e-01    1,056324691e-04   -3,637587652e-04    0,000000000e+00    0,000000000e+00    0,000000000e+00    0,000000000e+00
      168759676   -8,914172649e-01    4,039324522e-01    7,428321987e-05   -3,617880866e-04    0,000000000e+00    0,000000000e+00    0,000000000e+00    0,000000000e+00
      170322173   -8,789869547e-01    4,312948585e-01    4,202593118e-05   -3,809826449e-04    0,000000000e+00    0,000000000e+00    0,000000000e+00    0,000000000e+00
      171884670   -8,652282953e-01    4,591637850e-01    6,565824151e-05   -3,383914009e-04    0,000000000e+00    0,000000000e+00    0,000000000e+00    0,000000000e+00
      173447167   -8,510346413e-01    4,869294167e-01    5,246978253e-05   -3,743385896e-04    0,000000000e+00    0,000000000e+00    0,000000000e+00    0,000000000e+00
      175009664   -8,353299499e-01    5,140768290e-01    4,055537283e-05   -3,583068028e-04    0,000000000e+00    0,000000000e+00    0,000000000e+00    0,000000000e+00
      176572161   -8,186311126e-01    5,408356190e-01    5,772896111e-05   -3,768457100e-04    0,000000000e+00    0,000000000e+00    0,000000000e+00    0,000000000e+00
      178134658   -8,006144762e-01    5,672056675e-01    1,719407737e-05   -4,139626399e-04    0,000000000e+00    0,000000000e+00    0,000000000e+00    0,000000000e+00
      179697155   -7,826014161e-01    5,930783749e-01   -2,101063728e-06   -3,909822553e-04    0,000000000e+00    0,000000000e+00    0,000000000e+00    0,000000000e+00
      181259652   -7,627883554e-01    6,185175180e-01    1,548882574e-05   -4,184385762e-04    0,000000000e+00    0,000000000e+00    0,000000000e+00    0,000000000e+00
