! NanoVNA-App
! Date: 2025-10-30 21:19:08
! Start: 10kHz Stop: 4GHz Points: 3201
! S-Parameter data: F S11 S21 S12 S22
# Hz S RI R 50
!     Frequency           S11_Real           S11_Imag           S21_Real           S21_Imag           S12_Real           S12_Imag           S22_Real           S22_Imag
          10000    1,002108932e+00   -4,552872851e-04    3,298744559e-06   -4,050321877e-06    0,000000000e+00    0,000000000e+00    0,000000000e+00    0,000000000e+00
        1259997    9,923169017e-01   -3,192773461e-02   -1,671724021e-06    7,560476661e-06    0,000000000e+00    0,000000000e+00    0,000000000e+00    0,000000000e+00
        2509994    9,946655631e-01   -6,212843210e-02    1,720804721e-05   -1,019425690e-05    0,000000000e+00    0,000000000e+00    0,000000000e+00    0,000000000e+00
        3759991    9,914960265e-01   -9,328690916e-02   -2,213753760e-05   -2,443976700e-05    0,000000000e+00    0,000000000e+00    0,000000000e+00    0,000000000e+00
        5009988    9,882312417e-01   -1,246472448e-01   -1,489371061e-05    1,156423241e-05    0,000000000e+00    0,000000000e+00    0,000000000e+00    0,000000000e+00
        6259985    9,829977155e-01   -1,548155397e-01   -5,720183253e-06    2,439692616e-05    0,000000000e+00    0,000000000e+00    0,000000000e+00    0,000000000e+00
        7509982    9,776139855e-01   -1,852823049e-01   -3,094971180e-05   -9,142793715e-06    0,000000000e+00    0,000000000e+00    0,000000000e+00    0,000000000e+00
        8759979    9,713913798e-01   -2,148878276e-01   -1,560803503e-05    1,250486821e-05    0,000000000e+00    0,000000000e+00    0,000000000e+00    0,000000000e+00
       10009976    9,638394713e-01   -2,453497946e-01   -6,960704923e-06    1,659896225e-05    0,000000000e+00    0,000000000e+00    0,000000000e+00    0,000000000e+00
       11259973    9,560641646e-01   -2,741888762e-01   -2,221018076e-05    9,653158486e-06    0,000000000e+00    0,000000000e+00    0,000000000e+00    0,000000000e+00
       12509970    9,467974901e-01   -3,035574853e-01   -2,469867468e-05    9,171664715e-06    0,000000000e+00    0,000000000e+00    0,000000000e+00    0,000000000e+00
       13759967    9,366064072e-01   -3,321025968e-01    1,481361687e-05    3,310851753e-06    0,000000000e+00    0,000000000e+00    0,000000000e+00    0,000000000e+00
       15009964    9,268240333e-01   -3,601984680e-01    5,939975381e-06   -1,202523708e-05    0,000000000e+00    0,000000000e+00    0,000000000e+00    0,000000000e+00
       16259961    9,152033329e-01   -3,886320293e-01   -1,646298915e-05    1,556240022e-06    0,000000000e+00    0,000000000e+00    0,000000000e+00    0,000000000e+00
       17509958    9,026751518e-01   -4,160813093e-01    1,105479896e-05   -7,169321179e-06    0,000000000e+00    0,000000000e+00    0,000000000e+00    0,000000000e+00
       18759955    8,898373842e-01   -4,437900186e-01    4,569161683e-05   -2,436432987e-05    0,000000000e+00    0,000000000e+00    0,000000000e+00    0,000000000e+00
       20009952    8,757386804e-01   -4,701036513e-01   -2,215523273e-05    2,214778215e-05    0,000000000e+00    0,000000000e+00    0,000000000e+00    0,000000000e+00
       21259949    8,617126942e-01   -4,967048168e-01    3,931112587e-05   -2,607703209e-08    0,000000000e+00    0,000000000e+00    0,000000000e+00    0,000000000e+00
       22509946    8,462381959e-01   -5,230698586e-01    1,952704042e-05    2,546235919e-06    0,000000000e+00    0,000000000e+00    0,000000000e+00    0,000000000e+00
       23759943    8,298061490e-01   -5,479086041e-01    7,083639503e-06    3,618560731e-05    0,000000000e+00    0,000000000e+00    0,000000000e+00    0,000000000e+00
       25009940    8,130249977e-01   -5,732952356e-01    2,258922905e-05   -3,504101187e-05    0,000000000e+00    0,000000000e+00    0,000000000e+00    0,000000000e+00
       26259937    7,955416441e-01   -5,976522565e-01   -1,060124487e-05   -9,826384485e-06    0,000000000e+00    0,000000000e+00    0,000000000e+00    0,000000000e+00
       27509934    7,770131826e-01   -6,209578514e-01    3,104936332e-05    2,897344530e-05    0,000000000e+00    0,000000000e+00    0,000000000e+00    0,000000000e+00
       28759931    7,585068345e-01   -6,447312236e-01   -4,159286618e-06   -2,129003406e-06    0,000000000e+00    0,000000000e+00    0,000000000e+00    0,000000000e+00
       30009928    7,389211655e-01   -6,662424803e-01    2,001877874e-05    4,077889025e-05    0,000000000e+00    0,000000000e+00    0,000000000e+00    0,000000000e+00
       31259925    7,186661363e-01   -6,890608668e-01    1,061148942e-05    2,064649016e-05    0,000000000e+00    0,000000000e+00    0,000000000e+00    0,000000000e+00
       32509922    6,980076432e-01   -7,102712393e-01   -9,102746844e-06    3,393739462e-06    0,000000000e+00    0,000000000e+00    0,000000000e+00    0,000000000e+00
       33759919    6,768257022e-01   -7,304770947e-01    8,726492524e-07   -1,071020961e-07    0,000000000e+00    0,000000000e+00    0,000000000e+00    0,000000000e+00
       35009916    6,551197767e-01   -7,504727244e-01    1,316517591e-05    1,709256321e-05    0,000000000e+00    0,000000000e+00    0,000000000e+00    0,000000000e+00
       36259913    6,331143379e-01   -7,697069049e-01   -1,637171954e-05    3,143213689e-06    0,000000000e+00    0,000000000e+00    0,000000000e+00    0,000000000e+00
       37509910    6,100209951e-01   -7,882229090e-01   -4,334375262e-06    1,645274460e-05    0,000000000e+00    0,000000000e+00    0,000000000e+00    0,000000000e+00
       38759907    5,866020918e-01   -8,059229851e-01    2,406351268e-05   -9,173527360e-07    0,000000000e+00    0,000000000e+00    0,000000000e+00    0,000000000e+00
       40009904    5,629966855e-01   -8,236405849e-01    4,401244223e-05    2,981908619e-05    0,000000000e+00    0,000000000e+00    0,000000000e+00    0,000000000e+00
       41259901    5,388440490e-01   -8,393899202e-01    1,633632928e-05    2,355035394e-05    0,000000000e+00    0,000000000e+00    0,000000000e+00    0,000000000e+00
       42509898    5,143424273e-01   -8,554197550e-01   -9,886920452e-06    3,571342677e-05    0,000000000e+00    0,000000000e+00    0,000000000e+00    0,000000000e+00
       43759895    4,891005158e-01   -8,701920509e-01    4,584807903e-05    3,093387932e-05    0,000000000e+00    0,000000000e+00    0,000000000e+00    0,000000000e+00
       45009892    4,640059769e-01   -8,848127723e-01    4,353374243e-05    5,074962974e-05    0,000000000e+00    0,000000000e+00    0,000000000e+00    0,000000000e+00
       46259889    4,380782247e-01   -8,982795477e-01    6,140675396e-05    1,000985503e-05    0,000000000e+00    0,000000000e+00    0,000000000e+00    0,000000000e+00
       47509886    4,119076133e-01   -9,110025167e-01    4,867650568e-05    1,556146890e-05    0,000000000e+00    0,000000000e+00    0,000000000e+00    0,000000000e+00
       48759883    3,858253956e-01   -9,221664667e-01    1,539662480e-05    5,052238703e-05    0,000000000e+00    0,000000000e+00    0,000000000e+00    0,000000000e+00
       50009880    3,594232202e-01   -9,336421490e-01    7,432606071e-05    3,455206752e-05    0,000000000e+00    0,000000000e+00    0,000000000e+00    0,000000000e+00
       51259877    3,329336345e-01   -9,440736175e-01    1,973472536e-05    5,194172263e-05    0,000000000e+00    0,000000000e+00    0,000000000e+00    0,000000000e+00
       52509874    3,055031598e-01   -9,533057213e-01    1,859292388e-05    4,362966865e-05    0,000000000e+00    0,000000000e+00    0,000000000e+00    0,000000000e+00
       53759871    2,776495218e-01   -9,623013139e-01    5,016103387e-06    4,072673619e-05    0,000000000e+00    0,000000000e+00    0,000000000e+00    0,000000000e+00
       55009868    2,509601712e-01   -9,699760675e-01    2,548750490e-05    4,759524018e-05    0,000000000e+00    0,000000000e+00    0,000000000e+00    0,000000000e+00
       56259865    2,234724164e-01   -9,775019288e-01    4,110019654e-05    8,431263268e-06    0,000000000e+00    0,000000000e+00    0,000000000e+00    0,000000000e+00
       57509862    1,961599290e-01   -9,836289883e-01    2,609193325e-05    3,766827285e-05    0,000000000e+00    0,000000000e+00    0,000000000e+00    0,000000000e+00
       58759859    1,681445539e-01   -9,897879362e-01    3,274064511e-05    2,609752119e-05    0,000000000e+00    0,000000000e+00    0,000000000e+00    0,000000000e+00
       60009856    1,396255195e-01   -9,945496321e-01    6,929319352e-05    1,705344766e-05    0,000000000e+00    0,000000000e+00    0,000000000e+00    0,000000000e+00
       61259853    1,119756103e-01   -9,983459711e-01    5,490425974e-05    5,991570652e-05    0,000000000e+00    0,000000000e+00    0,000000000e+00    0,000000000e+00
       62509850    8,386734873e-02   -1,001557350e+00    4,034955055e-05   -1,362524927e-06    0,000000000e+00    0,000000000e+00    0,000000000e+00    0,000000000e+00
       63759847    5,619923398e-02   -1,003460646e+00    3,478489816e-05    7,102265954e-06    0,000000000e+00    0,000000000e+00    0,000000000e+00    0,000000000e+00
       65009844    2,804909460e-02   -1,004796147e+00    5,161110312e-05    2,007093281e-05    0,000000000e+00    0,000000000e+00    0,000000000e+00    0,000000000e+00
       66259841   -3,895862028e-04   -1,006583810e+00    3,584846854e-05    3,618560731e-05    0,000000000e+00    0,000000000e+00    0,000000000e+00    0,000000000e+00
       67509838   -2,811471373e-02   -1,006023884e+00    4,763435572e-05    1,761689782e-05    0,000000000e+00    0,000000000e+00    0,000000000e+00    0,000000000e+00
       68759835   -5,644494668e-02   -1,006234765e+00    8,384231478e-05    3,495905548e-05    0,000000000e+00    0,000000000e+00    0,000000000e+00    0,000000000e+00
       70009832   -8,391376585e-02   -1,004432917e+00    7,032416761e-05    1,007504761e-05    0,000000000e+00    0,000000000e+00    0,000000000e+00    0,000000000e+00
       71259829   -1,118550450e-01   -1,002646208e+00    2,128165215e-05    5,794689059e-06    0,000000000e+00    0,000000000e+00    0,000000000e+00    0,000000000e+00
       72509826   -1,394604594e-01   -9,993115067e-01    3,180187196e-05    7,320195436e-07    0,000000000e+00    0,000000000e+00    0,000000000e+00    0,000000000e+00
       73759823   -1,667060107e-01   -9,960632920e-01    2,842396498e-05    7,368624210e-06    0,000000000e+00    0,000000000e+00    0,000000000e+00    0,000000000e+00
       75009820   -1,942171305e-01   -9,915798903e-01    4,840455949e-05    3,145635128e-05    0,000000000e+00    0,000000000e+00    0,000000000e+00    0,000000000e+00
       76259817   -2,214301080e-01   -9,869550467e-01    6,473530084e-05    3,885943443e-05    0,000000000e+00    0,000000000e+00    0,000000000e+00    0,000000000e+00
       77509814   -2,479552031e-01   -9,804421663e-01    5,620252341e-05    8,502975106e-07    0,000000000e+00    0,000000000e+00    0,000000000e+00    0,000000000e+00
       78759811   -2,748357356e-01   -9,741584659e-01    6,652437150e-05    7,970258594e-06    0,000000000e+00    0,000000000e+00    0,000000000e+00    0,000000000e+00
       80009808   -3,017879128e-01   -9,671218395e-01    5,219690502e-05   -2,358015627e-05    0,000000000e+00    0,000000000e+00    0,000000000e+00    0,000000000e+00
       81259805   -3,273622990e-01   -9,589385986e-01    4,756730050e-05   -6,461516023e-06    0,000000000e+00    0,000000000e+00    0,000000000e+00    0,000000000e+00
       82509802   -3,540591002e-01   -9,506244659e-01    6,543006748e-05   -6,600283086e-06    0,000000000e+00    0,000000000e+00    0,000000000e+00    0,000000000e+00
       83759799   -3,797915280e-01   -9,411523938e-01    2,787075937e-05    5,165208131e-05    0,000000000e+00    0,000000000e+00    0,000000000e+00    0,000000000e+00
       85009796   -4,052298665e-01   -9,313820004e-01    3,165192902e-05   -2,618972212e-05    0,000000000e+00    0,000000000e+00    0,000000000e+00    0,000000000e+00
       86259793   -4,301238060e-01   -9,210813046e-01    7,339287549e-05    4,908069968e-05    0,000000000e+00    0,000000000e+00    0,000000000e+00    0,000000000e+00
       87509790   -4,544377029e-01   -9,090233445e-01    5,521159619e-05    1,693237573e-05    0,000000000e+00    0,000000000e+00    0,000000000e+00    0,000000000e+00
       88759787   -4,789807498e-01   -8,973987699e-01    3,573298454e-05   -3,291573375e-05    0,000000000e+00    0,000000000e+00    0,000000000e+00    0,000000000e+00
       90009784   -5,030535460e-01   -8,848863244e-01    1,012310386e-04    3,003235906e-05    0,000000000e+00    0,000000000e+00    0,000000000e+00    0,000000000e+00
       91259781   -5,264399648e-01   -8,716384768e-01    7,743574679e-05    2,731103450e-05    0,000000000e+00    0,000000000e+00    0,000000000e+00    0,000000000e+00
       92509778   -5,496524572e-01   -8,577520847e-01    2,313032746e-05   -8,546747267e-06    0,000000000e+00    0,000000000e+00    0,000000000e+00    0,000000000e+00
       93759775   -5,725716352e-01   -8,432871103e-01    3,423914313e-05    1,678150147e-05    0,000000000e+00    0,000000000e+00    0,000000000e+00    0,000000000e+00
       95009772   -5,951448083e-01   -8,281644583e-01    7,154233754e-05   -1,747254282e-05    0,000000000e+00    0,000000000e+00    0,000000000e+00    0,000000000e+00
       96259769   -6,167957783e-01   -8,126069903e-01    3,709178418e-05   -1,596380025e-05    0,000000000e+00    0,000000000e+00    0,000000000e+00    0,000000000e+00
       97509766   -6,381295323e-01   -7,966910005e-01    5,938485265e-05   -3,506429493e-06    0,000000000e+00    0,000000000e+00    0,000000000e+00    0,000000000e+00
       98759763   -6,597879529e-01   -7,804723382e-01    3,837794065e-05   -2,411752939e-05    0,000000000e+00    0,000000000e+00    0,000000000e+00    0,000000000e+00
      100009760   -6,477254629e-01   -7,032524347e-01    4,776753485e-05   -2,134125680e-05    0,000000000e+00    0,000000000e+00    0,000000000e+00    0,000000000e+00
      101259757   -6,648247838e-01   -6,860868335e-01    5,438830703e-05   -7,037073374e-06    0,000000000e+00    0,000000000e+00    0,000000000e+00    0,000000000e+00
      102509754   -6,824289560e-01   -6,692603827e-01    5,322229117e-05   -1,457706094e-05    0,000000000e+00    0,000000000e+00    0,000000000e+00    0,000000000e+00
      103759751   -6,981097460e-01   -6,518480182e-01    4,331860691e-05   -3,922265023e-05    0,000000000e+00    0,000000000e+00    0,000000000e+00    0,000000000e+00
      105009748   -7,145644426e-01   -6,344016790e-01    1,018391922e-04   -4,183035344e-05    0,000000000e+00    0,000000000e+00    0,000000000e+00    0,000000000e+00
      106259745   -7,301203012e-01   -6,163682938e-01    8,133519441e-05   -3,419909626e-05    0,000000000e+00    0,000000000e+00    0,000000000e+00    0,000000000e+00
      107509742   -7,451227307e-01   -5,978931189e-01    5,669146776e-05   -1,896545291e-05    0,000000000e+00    0,000000000e+00    0,000000000e+00    0,000000000e+00
      108759739   -7,599704862e-01   -5,791932344e-01    9,566172957e-05   -4,952121526e-05    0,000000000e+00    0,000000000e+00    0,000000000e+00    0,000000000e+00
      110009736   -7,742052674e-01   -5,604921579e-01    6,959866732e-05   -1,657567918e-05    0,000000000e+00    0,000000000e+00    0,000000000e+00    0,000000000e+00
      111259733   -7,872463465e-01   -5,405985713e-01    4,463456571e-05   -3,592669964e-05    0,000000000e+00    0,000000000e+00    0,000000000e+00    0,000000000e+00
      112509730   -8,010278940e-01   -5,209103823e-01    3,088638186e-05   -4,231370986e-05    0,000000000e+00    0,000000000e+00    0,000000000e+00    0,000000000e+00
      113759727   -8,137965202e-01   -5,011541247e-01    6,895605475e-05   -2,429448068e-05    0,000000000e+00    0,000000000e+00    0,000000000e+00    0,000000000e+00
      115009724   -8,258328438e-01   -4,805926681e-01    6,343331188e-05   -4,971493036e-05    0,000000000e+00    0,000000000e+00    0,000000000e+00    0,000000000e+00
      116259721   -8,375273347e-01   -4,597991407e-01    4,413444549e-05   -3,157649189e-05    0,000000000e+00    0,000000000e+00    0,000000000e+00    0,000000000e+00
      117509718   -8,492199779e-01   -4,394825697e-01    6,105564535e-05   -6,566289812e-05    0,000000000e+00    0,000000000e+00    0,000000000e+00    0,000000000e+00
      118759715   -8,597107530e-01   -4,179977179e-01    3,896374255e-05   -3,262236714e-05    0,000000000e+00    0,000000000e+00    0,000000000e+00    0,000000000e+00
      120009712   -8,697891831e-01   -3,965261877e-01    6,087869406e-05   -5,501043051e-05    0,000000000e+00    0,000000000e+00    0,000000000e+00    0,000000000e+00
      121259709   -8,795439601e-01   -3,745355010e-01    5,486141890e-05   -3,887433559e-05    0,000000000e+00    0,000000000e+00    0,000000000e+00    0,000000000e+00
      122509706   -8,887600303e-01   -3,532590270e-01    7,117446512e-05   -5,891639739e-05    0,000000000e+00    0,000000000e+00    0,000000000e+00    0,000000000e+00
      123759703   -8,973115087e-01   -3,306800723e-01    3,332179040e-05   -4,779733717e-05    0,000000000e+00    0,000000000e+00    0,000000000e+00    0,000000000e+00
      125009700   -9,060796499e-01   -3,085376918e-01    6,845034659e-05   -5,926284939e-05    0,000000000e+00    0,000000000e+00    0,000000000e+00    0,000000000e+00
      126259697   -9,133747816e-01   -2,861464620e-01    5,014054477e-05   -8,464138955e-05    0,000000000e+00    0,000000000e+00    0,000000000e+00    0,000000000e+00
      127509694   -9,206186533e-01   -2,637762427e-01    6,061047316e-05   -3,462284803e-05    0,000000000e+00    0,000000000e+00    0,000000000e+00    0,000000000e+00
      128759691   -9,270492792e-01   -2,405450046e-01    5,364511162e-05   -2,714805305e-05    0,000000000e+00    0,000000000e+00    0,000000000e+00    0,000000000e+00
      130009688   -9,326660037e-01   -2,171983123e-01    2,850685269e-05   -8,984562010e-05    0,000000000e+00    0,000000000e+00    0,000000000e+00    0,000000000e+00
      131259685   -9,377803802e-01   -1,934875101e-01    4,660245031e-05   -4,374515265e-05    0,000000000e+00    0,000000000e+00    0,000000000e+00    0,000000000e+00
      132509682   -9,427455068e-01   -1,699853539e-01    7,085595280e-05   -5,806423724e-05    0,000000000e+00    0,000000000e+00    0,000000000e+00    0,000000000e+00
      133759679   -9,473112822e-01   -1,472662985e-01    3,812462091e-05   -6,688851863e-05    0,000000000e+00    0,000000000e+00    0,000000000e+00    0,000000000e+00
      135009676   -9,508844614e-01   -1,230910495e-01    8,115544915e-06   -7,187109441e-05    0,000000000e+00    0,000000000e+00    0,000000000e+00    0,000000000e+00
      136259673   -9,542598128e-01   -9,947625548e-02    5,638226867e-05   -5,811266601e-05    0,000000000e+00    0,000000000e+00    0,000000000e+00    0,000000000e+00
      137509670   -9,566943645e-01   -7,508610189e-02    5,861464888e-05   -7,452443242e-05    0,000000000e+00    0,000000000e+00    0,000000000e+00    0,000000000e+00
      138759667   -9,582506418e-01   -5,137369782e-02    7,840711623e-05   -8,602812886e-05    0,000000000e+00    0,000000000e+00    0,000000000e+00    0,000000000e+00
      140009664   -9,597740173e-01   -2,704895288e-02    3,419630229e-05   -8,304603398e-05    0,000000000e+00    0,000000000e+00    0,000000000e+00    0,000000000e+00
      141259661   -9,604538679e-01   -2,296476625e-03    1,067388803e-05   -3,902614117e-05    0,000000000e+00    0,000000000e+00    0,000000000e+00    0,000000000e+00
      142509658   -9,605893493e-01    2,172753029e-02    6,793253124e-05   -8,738785982e-05    0,000000000e+00    0,000000000e+00    0,000000000e+00    0,000000000e+00
      143759655   -9,601135850e-01    4,599820450e-02    2,602208406e-05   -8,321274072e-05    0,000000000e+00    0,000000000e+00    0,000000000e+00    0,000000000e+00
      145009652   -9,586710930e-01    7,025162876e-02    3,900099546e-05   -6,026867777e-05    0,000000000e+00    0,000000000e+00    0,000000000e+00    0,000000000e+00
