! NanoVNA-App
! Date: 2025-10-30 21:25:09
! Start: 10kHz Stop: 4GHz Points: 3201
! S-Parameter data: F S11 S21 S12 S22
# Hz S RI R 50
!     Frequency           S11_Real           S11_Imag           S21_Real           S21_Imag           S12_Real           S12_Imag           S22_Real           S22_Imag
          10000    1,001954913e+00   -5,843592808e-04    1,579523087e-06   -3,564171493e-06    0,000000000e+00    0,000000000e+00    0,000000000e+00    0,000000000e+00
        1259997    9,924784303e-01   -3,167431802e-02   -2,415757626e-05    2,403277904e-05    0,000000000e+00    0,000000000e+00    0,000000000e+00    0,000000000e+00
        2509994    9,945049286e-01   -6,112916395e-02   -2,869684249e-05    1,982413232e-05    0,000000000e+00    0,000000000e+00    0,000000000e+00    0,000000000e+00
        3759991    9,917930961e-01   -9,155484289e-02    2,986751497e-06   -2,430751920e-06    0,000000000e+00    0,000000000e+00    0,000000000e+00    0,000000000e+00
        5009988    9,882918000e-01   -1,228279322e-01    1,901760697e-06    1,148413867e-05    0,000000000e+00    0,000000000e+00    0,000000000e+00    0,000000000e+00
        6259985    9,832424521e-01   -1,527069807e-01   -5,495734513e-06    1,172535121e-06    0,000000000e+00    0,000000000e+00    0,000000000e+00    0,000000000e+00
        7509982    9,774943590e-01   -1,821725070e-01    4,309043288e-05    3,148987889e-05    0,000000000e+00    0,000000000e+00    0,000000000e+00    0,000000000e+00
        8759979    9,718794823e-01   -2,118511796e-01    3,093387932e-05    1,342874020e-05    0,000000000e+00    0,000000000e+00    0,000000000e+00    0,000000000e+00
       10009976    9,645298719e-01   -2,415692210e-01    3,379583359e-05    1,519359648e-05    0,000000000e+00    0,000000000e+00    0,000000000e+00    0,000000000e+00
       11259973    9,571151137e-01   -2,702817321e-01    5,031004548e-06    2,674385905e-05    0,000000000e+00    0,000000000e+00    0,000000000e+00    0,000000000e+00
       12509970    9,479671717e-01   -2,988140583e-01   -3,614183515e-05    2,144463360e-05    0,000000000e+00    0,000000000e+00    0,000000000e+00    0,000000000e+00
       13759967    9,379993081e-01   -3,269970119e-01   -1,398660243e-05    2,073589712e-05    0,000000000e+00    0,000000000e+00    0,000000000e+00    0,000000000e+00
       15009964    9,283078313e-01   -3,551758230e-01    1,097377390e-05   -2,846121788e-06    0,000000000e+00    0,000000000e+00    0,000000000e+00    0,000000000e+00
       16259961    9,165701866e-01   -3,830407262e-01    1,733098179e-05    4,904624075e-05    0,000000000e+00    0,000000000e+00    0,000000000e+00    0,000000000e+00
       17509958    9,052281976e-01   -4,102793634e-01   -3,585871309e-05    2,936553210e-05    0,000000000e+00    0,000000000e+00    0,000000000e+00    0,000000000e+00
       18759955    8,921951056e-01   -4,371036887e-01    1,741666347e-05   -3,033317626e-06    0,000000000e+00    0,000000000e+00    0,000000000e+00    0,000000000e+00
       20009952    8,787308335e-01   -4,634679258e-01    2,271216363e-05    2,880580723e-05    0,000000000e+00    0,000000000e+00    0,000000000e+00    0,000000000e+00
       21259949    8,648058772e-01   -4,897889495e-01    7,785856724e-06   -9,479001164e-06    0,000000000e+00    0,000000000e+00    0,000000000e+00    0,000000000e+00
       22509946    8,499673605e-01   -5,153920650e-01    6,835907698e-06   -1,075863838e-05    0,000000000e+00    0,000000000e+00    0,000000000e+00    0,000000000e+00
       23759943    8,338906169e-01   -5,400074720e-01    1,512654126e-05    2,926681191e-05    0,000000000e+00    0,000000000e+00    0,000000000e+00    0,000000000e+00
       25009940    8,176723123e-01   -5,648772717e-01    1,653283834e-05    5,724932998e-05    0,000000000e+00    0,000000000e+00    0,000000000e+00    0,000000000e+00
       26259937    8,006864190e-01   -5,889587402e-01    2,610776573e-05   -3,376696259e-05    0,000000000e+00    0,000000000e+00    0,000000000e+00    0,000000000e+00
       27509934    7,829759121e-01   -6,124057770e-01    3,906525671e-05    2,512987703e-05    0,000000000e+00    0,000000000e+00    0,000000000e+00    0,000000000e+00
       28759931    7,645552158e-01   -6,351931095e-01   -3,633182496e-05   -2,440996468e-06    0,000000000e+00    0,000000000e+00    0,000000000e+00    0,000000000e+00
       30009928    7,458752990e-01   -6,582412720e-01   -1,073908061e-05    5,755946040e-05    0,000000000e+00    0,000000000e+00    0,000000000e+00    0,000000000e+00
       31259925    7,263300419e-01   -6,791646481e-01   -6,505288184e-06    1,713447273e-05    0,000000000e+00    0,000000000e+00    0,000000000e+00    0,000000000e+00
       32509922    7,062425613e-01   -7,003885508e-01    3,566313535e-05    1,593492925e-05    0,000000000e+00    0,000000000e+00    0,000000000e+00    0,000000000e+00
       33759919    6,856820583e-01   -7,205544114e-01    3,025494516e-05    1,668557525e-05    0,000000000e+00    0,000000000e+00    0,000000000e+00    0,000000000e+00
       35009916    6,644942760e-01   -7,409225702e-01    2,478994429e-05    1,642573625e-05    0,000000000e+00    0,000000000e+00    0,000000000e+00    0,000000000e+00
       36259913    6,425467134e-01   -7,597729564e-01    9,671784937e-06   -1,622550189e-05    0,000000000e+00    0,000000000e+00    0,000000000e+00    0,000000000e+00
       37509910    6,204748750e-01   -7,781222463e-01    1,738499850e-05    2,449844033e-05    0,000000000e+00    0,000000000e+00    0,000000000e+00    0,000000000e+00
       38759907    5,973178148e-01   -7,967934608e-01    7,512047887e-06    4,410743713e-06    0,000000000e+00    0,000000000e+00    0,000000000e+00    0,000000000e+00
       40009904    5,749719143e-01   -8,142093420e-01   -2,536922693e-06    2,053193748e-05    0,000000000e+00    0,000000000e+00    0,000000000e+00    0,000000000e+00
       41259901    5,511876345e-01   -8,301540613e-01    1,489650458e-05    2,898275852e-06    0,000000000e+00    0,000000000e+00    0,000000000e+00    0,000000000e+00
       42509898    5,273622274e-01   -8,458080888e-01    1,318939030e-05    3,259722143e-05    0,000000000e+00    0,000000000e+00    0,000000000e+00    0,000000000e+00
       43759895    5,028916597e-01   -8,608311415e-01    3,704801202e-05    4,333257675e-05    0,000000000e+00    0,000000000e+00    0,000000000e+00    0,000000000e+00
       45009892    4,788513482e-01   -8,751952052e-01    3,469642252e-05    5,069933832e-05    0,000000000e+00    0,000000000e+00    0,000000000e+00    0,000000000e+00
       46259889    4,533956349e-01   -8,882651925e-01    4,299543798e-05    3,185961396e-05    0,000000000e+00    0,000000000e+00    0,000000000e+00    0,000000000e+00
       47509886    4,281845391e-01   -9,015246630e-01    6,114132702e-06    2,105254680e-05    0,000000000e+00    0,000000000e+00    0,000000000e+00    0,000000000e+00
       48759883    4,026807845e-01   -9,142582417e-01    3,656465560e-05    6,826594472e-06    0,000000000e+00    0,000000000e+00    0,000000000e+00    0,000000000e+00
       50009880    3,765372932e-01   -9,246947169e-01    9,116809815e-05   -6,541609764e-05    0,000000000e+00    0,000000000e+00    0,000000000e+00    0,000000000e+00
       51259877    3,501742780e-01   -9,356207848e-01    3,900751472e-05    2,266466618e-05    0,000000000e+00    0,000000000e+00    0,000000000e+00    0,000000000e+00
       52509874    3,240131140e-01   -9,455874562e-01    2,873968333e-05    2,773664892e-05    0,000000000e+00    0,000000000e+00    0,000000000e+00    0,000000000e+00
       53759871    2,975408733e-01   -9,548276067e-01    5,005951971e-05    4,076957703e-05    0,000000000e+00    0,000000000e+00    0,000000000e+00    0,000000000e+00
       55009868    2,704742849e-01   -9,626854062e-01    1,696869731e-06   -1,899525523e-05    0,000000000e+00    0,000000000e+00    0,000000000e+00    0,000000000e+00
       56259865    2,437744439e-01   -9,706761241e-01    6,285961717e-05    3,168452531e-05    0,000000000e+00    0,000000000e+00    0,000000000e+00    0,000000000e+00
       57509862    2,167073488e-01   -9,773905277e-01    1,760199666e-05    2,128910273e-05    0,000000000e+00    0,000000000e+00    0,000000000e+00    0,000000000e+00
       58759859    1,898239851e-01   -9,837534428e-01    4,657637328e-05   -5,356036127e-06    0,000000000e+00    0,000000000e+00    0,000000000e+00    0,000000000e+00
       60009856    1,623056084e-01   -9,890732169e-01    4,194024950e-05    1,253932714e-05    0,000000000e+00    0,000000000e+00    0,000000000e+00    0,000000000e+00
       61259853    1,349500865e-01   -9,935411215e-01    4,436913878e-05    4,259403795e-05    0,000000000e+00    0,000000000e+00    0,000000000e+00    0,000000000e+00
       62509850    1,074658334e-01   -9,971596003e-01    3,497209400e-05    2,489145845e-05    0,000000000e+00    0,000000000e+00    0,000000000e+00    0,000000000e+00
       63759847    7,960563153e-02   -1,000195384e+00    2,353265882e-05    4,985276610e-05    0,000000000e+00    0,000000000e+00    0,000000000e+00    0,000000000e+00
       65009844    5,256472528e-02   -1,002995849e+00    3,713369370e-05    3,383401781e-05    0,000000000e+00    0,000000000e+00    0,000000000e+00    0,000000000e+00
       66259841    2,520610578e-02   -1,004152894e+00    4,759058356e-07    3,077927977e-05    0,000000000e+00    0,000000000e+00    0,000000000e+00    0,000000000e+00
       67509838   -2,451330423e-03   -1,004740477e+00   -1,638196409e-06    2,614501864e-05    0,000000000e+00    0,000000000e+00    0,000000000e+00    0,000000000e+00
       68759835   -2,961037681e-02   -1,004639030e+00    5,829706788e-05   -2,078339458e-05    0,000000000e+00    0,000000000e+00    0,000000000e+00    0,000000000e+00
       70009832   -5,725428089e-02   -1,004234552e+00    5,292613059e-05   -2,626422793e-05    0,000000000e+00    0,000000000e+00    0,000000000e+00    0,000000000e+00
       71259829   -8,443348855e-02   -1,002820492e+00    4,189088941e-05    3,854930401e-05    0,000000000e+00    0,000000000e+00    0,000000000e+00    0,000000000e+00
       72509826   -1,118642092e-01   -1,000713348e+00    5,330052227e-05    1,070834696e-05    0,000000000e+00    0,000000000e+00    0,000000000e+00    0,000000000e+00
       73759823   -1,386825293e-01   -9,983823895e-01    5,126744509e-05    3,986619413e-05    0,000000000e+00    0,000000000e+00    0,000000000e+00    0,000000000e+00
       75009820   -1,659875810e-01   -9,946755767e-01    4,031509161e-05    1,635681838e-05    0,000000000e+00    0,000000000e+00    0,000000000e+00    0,000000000e+00
       76259817   -1,927042603e-01   -9,899744987e-01    3,063213080e-05    5,209166557e-05    0,000000000e+00    0,000000000e+00    0,000000000e+00    0,000000000e+00
       77509814   -2,194565833e-01   -9,855232239e-01    1,639500260e-05    4,201475531e-05    0,000000000e+00    0,000000000e+00    0,000000000e+00    0,000000000e+00
       78759811   -2,456563264e-01   -9,796904922e-01    4,796031862e-05    4,192814231e-06    0,000000000e+00    0,000000000e+00    0,000000000e+00    0,000000000e+00
       80009808   -2,716799974e-01   -9,730365872e-01    2,072565258e-05   -1,229066402e-05    0,000000000e+00    0,000000000e+00    0,000000000e+00    0,000000000e+00
       81259805   -2,978787720e-01   -9,662925601e-01    5,152355880e-05   -4,524365067e-06    0,000000000e+00    0,000000000e+00    0,000000000e+00    0,000000000e+00
       82509802   -3,233954012e-01   -9,582490325e-01    2,057664096e-05    1,905113459e-05    0,000000000e+00    0,000000000e+00    0,000000000e+00    0,000000000e+00
       83759799   -3,488561809e-01   -9,499298334e-01    3,962498158e-05    2,339854836e-05    0,000000000e+00    0,000000000e+00    0,000000000e+00    0,000000000e+00
       85009796   -3,742791116e-01   -9,410446882e-01    2,429820597e-05    2,909451723e-05    0,000000000e+00    0,000000000e+00    0,000000000e+00    0,000000000e+00
       86259793   -3,987581134e-01   -9,314879775e-01    5,918089300e-05    4,014559090e-05    0,000000000e+00    0,000000000e+00    0,000000000e+00    0,000000000e+00
       87509790   -4,229713678e-01   -9,210153818e-01    4,327669740e-05    2,973154187e-05    0,000000000e+00    0,000000000e+00    0,000000000e+00    0,000000000e+00
       88759787   -4,476959705e-01   -9,100170135e-01    7,402617484e-05   -3,137625754e-06    0,000000000e+00    0,000000000e+00    0,000000000e+00    0,000000000e+00
       90009784   -4,720987082e-01   -8,987241983e-01    5,391519517e-05    1,582223922e-05    0,000000000e+00    0,000000000e+00    0,000000000e+00    0,000000000e+00
       91259781   -4,954698980e-01   -8,866820335e-01    6,171502173e-05   -6,228685379e-06    0,000000000e+00    0,000000000e+00    0,000000000e+00    0,000000000e+00
       92509778   -5,180119276e-01   -8,741223812e-01    2,156291157e-05   -1,546926796e-05    0,000000000e+00    0,000000000e+00    0,000000000e+00    0,000000000e+00
       93759775   -5,412241817e-01   -8,602447510e-01    1,014498994e-04   -5,014520139e-05    0,000000000e+00    0,000000000e+00    0,000000000e+00    0,000000000e+00
       95009772   -5,642650723e-01   -8,464782238e-01    7,778778672e-05   -6,353110075e-05    0,000000000e+00    0,000000000e+00    0,000000000e+00    0,000000000e+00
       96259769   -5,856404901e-01   -8,317235112e-01    3,153923899e-05    1,056399196e-05    0,000000000e+00    0,000000000e+00    0,000000000e+00    0,000000000e+00
       97509766   -6,070947647e-01   -8,169398308e-01    4,508346319e-05   -1,349765807e-05    0,000000000e+00    0,000000000e+00    0,000000000e+00    0,000000000e+00
       98759763   -6,284099817e-01   -8,014070988e-01    5,842838436e-05   -1,108925790e-05    0,000000000e+00    0,000000000e+00    0,000000000e+00    0,000000000e+00
      100009760   -6,207060814e-01   -7,248516679e-01    6,277859211e-05    2,141110599e-06    0,000000000e+00    0,000000000e+00    0,000000000e+00    0,000000000e+00
      101259757   -6,382526159e-01   -7,092018723e-01    4,354957491e-05   -5,147419870e-05    0,000000000e+00    0,000000000e+00    0,000000000e+00    0,000000000e+00
      102509754   -6,556749940e-01   -6,929600239e-01    5,456525832e-05   -3,771018237e-05    0,000000000e+00    0,000000000e+00    0,000000000e+00    0,000000000e+00
      103759751   -6,718983650e-01   -6,765967607e-01    8,177757263e-05   -3,779027611e-05    0,000000000e+00    0,000000000e+00    0,000000000e+00    0,000000000e+00
      105009748   -6,883096099e-01   -6,593310833e-01    2,456083894e-05    4,660338163e-06    0,000000000e+00    0,000000000e+00    0,000000000e+00    0,000000000e+00
      106259745   -7,043491602e-01   -6,422582865e-01    4,284735769e-05   -2,931617200e-05    0,000000000e+00    0,000000000e+00    0,000000000e+00    0,000000000e+00
      107509742   -7,200876474e-01   -6,248670220e-01    5,150493234e-05    1,437589526e-05    0,000000000e+00    0,000000000e+00    0,000000000e+00    0,000000000e+00
      108759739   -7,345003486e-01   -6,069645882e-01    4,495587200e-05   -4,920363426e-05    0,000000000e+00    0,000000000e+00    0,000000000e+00    0,000000000e+00
      110009736   -7,495855093e-01   -5,889136791e-01    6,754416972e-05   -3,407057375e-05    0,000000000e+00    0,000000000e+00    0,000000000e+00    0,000000000e+00
      111259733   -7,633272409e-01   -5,702985525e-01    3,013107926e-05   -3,649666905e-05    0,000000000e+00    0,000000000e+00    0,000000000e+00    0,000000000e+00
      112509730   -7,771628499e-01   -5,516431332e-01    6,064400077e-05   -3,408174962e-05    0,000000000e+00    0,000000000e+00    0,000000000e+00    0,000000000e+00
      113759727   -7,904213071e-01   -5,326722264e-01    6,126053631e-05   -3,103259951e-05    0,000000000e+00    0,000000000e+00    0,000000000e+00    0,000000000e+00
      115009724   -8,032432199e-01   -5,128163695e-01    7,480569184e-05   -5,756411701e-05    0,000000000e+00    0,000000000e+00    0,000000000e+00    0,000000000e+00
      116259721   -8,156277537e-01   -4,933261275e-01    4,239194095e-05   -4,548579454e-05    0,000000000e+00    0,000000000e+00    0,000000000e+00    0,000000000e+00
      117509718   -8,275117278e-01   -4,735891223e-01    7,854029536e-05   -2,728402615e-05    0,000000000e+00    0,000000000e+00    0,000000000e+00    0,000000000e+00
      118759715   -8,388069868e-01   -4,533268809e-01    5,361903459e-05   -1,620687544e-05    0,000000000e+00    0,000000000e+00    0,000000000e+00    0,000000000e+00
      120009712   -8,496416211e-01   -4,329822361e-01    5,699787289e-05   -4,089251161e-05    0,000000000e+00    0,000000000e+00    0,000000000e+00    0,000000000e+00
      121259709   -8,598560691e-01   -4,117847085e-01    8,857063949e-05   -5,643162876e-05    0,000000000e+00    0,000000000e+00    0,000000000e+00    0,000000000e+00
      122509706   -8,696559668e-01   -3,908088505e-01    4,832539707e-05   -4,636123776e-05    0,000000000e+00    0,000000000e+00    0,000000000e+00    0,000000000e+00
      123759703   -8,791155219e-01   -3,697503507e-01    6,366521120e-05   -3,604311496e-05    0,000000000e+00    0,000000000e+00    0,000000000e+00    0,000000000e+00
      125009700   -8,885233402e-01   -3,484098911e-01    3,622099757e-05   -5,149189383e-05    0,000000000e+00    0,000000000e+00    0,000000000e+00    0,000000000e+00
      126259697   -8,961610794e-01   -3,262550533e-01    3,100931644e-05   -2,275314182e-05    0,000000000e+00    0,000000000e+00    0,000000000e+00    0,000000000e+00
      127509694   -9,042993784e-01   -3,048503101e-01    4,237145185e-05   -4,390813410e-05    0,000000000e+00    0,000000000e+00    0,000000000e+00    0,000000000e+00
      128759691   -9,116812944e-01   -2,828920186e-01    3,909133375e-05   -5,144719034e-05    0,000000000e+00    0,000000000e+00    0,000000000e+00    0,000000000e+00
      130009688   -9,187179208e-01   -2,603049278e-01    6,218161434e-05   -7,513910532e-05    0,000000000e+00    0,000000000e+00    0,000000000e+00    0,000000000e+00
      131259685   -9,250140190e-01   -2,379350513e-01    4,252791405e-05   -5,781464279e-05    0,000000000e+00    0,000000000e+00    0,000000000e+00    0,000000000e+00
      132509682   -9,309352040e-01   -2,152249217e-01    4,753284156e-05   -4,345737398e-05    0,000000000e+00    0,000000000e+00    0,000000000e+00    0,000000000e+00
      133759679   -9,354679585e-01   -1,925196499e-01    3,809016198e-05   -5,154311657e-05    0,000000000e+00    0,000000000e+00    0,000000000e+00    0,000000000e+00
      135009676   -9,401950240e-01   -1,694127768e-01    5,813501775e-05   -6,208475679e-05    0,000000000e+00    0,000000000e+00    0,000000000e+00    0,000000000e+00
      136259673   -9,447469711e-01   -1,463939399e-01    5,325488746e-05   -8,748099208e-05    0,000000000e+00    0,000000000e+00    0,000000000e+00    0,000000000e+00
      137509670   -9,481750131e-01   -1,230395883e-01    6,215833127e-05   -5,413126200e-05    0,000000000e+00    0,000000000e+00    0,000000000e+00    0,000000000e+00
      138759667   -9,509636164e-01   -9,969582409e-02    3,942474723e-05   -5,371868610e-05    0,000000000e+00    0,000000000e+00    0,000000000e+00    0,000000000e+00
      140009664   -9,534418583e-01   -7,600999624e-02    6,656814367e-05   -5,690008402e-05    0,000000000e+00    0,000000000e+00    0,000000000e+00    0,000000000e+00
      141259661   -9,556283355e-01   -5,310596153e-02    3,139302135e-05   -4,851818085e-05    0,000000000e+00    0,000000000e+00    0,000000000e+00    0,000000000e+00
      142509658   -9,569498301e-01   -2,937270142e-02    5,993992090e-05   -7,832609117e-05    0,000000000e+00    0,000000000e+00    0,000000000e+00    0,000000000e+00
      143759655   -9,577412605e-01   -5,433284678e-03    2,456270158e-05   -7,445085794e-05    0,000000000e+00    0,000000000e+00    0,000000000e+00    0,000000000e+00
      145009652   -9,576370716e-01    1,827950962e-02    5,577690899e-05   -9,043794125e-05    0,000000000e+00    0,000000000e+00    0,000000000e+00    0,000000000e+00
