! TOUCHSTONE file generated by CST MICROWAVE STUDIO
! Date and time: Sun Jun 29 11:36:11 2025
! Project name: ResonadorAnillo.cst
! Parameters = {Eeff=2.85062; Er=3.66; H=1.524; L1=44.4214; L2=44.4214; Landa=177.685; T=0.017; W=3.30928; Wa=3.30928; X=121.031; Y=121.031; c=3e+11; f=1e+09; r=28.2795; s=0.3}
! Header version: 2024
! Port assignment regex: !\s*Touchstone port\s*([0-9]+)\s*=\s*(CST MWS port|CST DES external port|CST DES block port)\s*(.+)\s* \(\"(.*)\"\)(\s*mode\s*([0-9]+))?.*
! Touchstone port assignment:
! Touchstone port 1 = CST MWS port 1 ("")
! Touchstone port 2 = CST MWS port 2 ("")
# GHz S DB R 50
0                 1.20051761e-05               0      -138.870844               0      -138.870843               0   1.19415645e-05               0
0.002            -0.000261247456    -0.254093561       -117.23058      89.6857491       -117.23058       89.685749  -0.000237183929    -0.254472957
0.004            -0.000525659052    -0.508209182      -112.629913      91.2531595      -112.629913      91.2531595   -0.00047754154    -0.508968632
0.006            -0.000788968908    -0.762317377       -109.31181      89.6847139       -109.31181      89.6847139  -0.000716768651    -0.763456629
0.008             -0.00105253648     -1.01642444      -106.851651      89.1437361      -106.851651      89.1437361  -0.000956262232     -1.01794338
0.01              -0.00131633118     -1.27053201      -104.918876      88.9104242      -104.918876      88.9104241   -0.00119598914     -1.27243055
0.012             -0.00147129875     -1.52404911      -103.332076      88.8013321      -103.332076      88.8013321   -0.00133406303     -1.52640836
0.014             -0.00159113828     -1.77775087      -101.983043      88.7209502      -101.983043      88.7209502   -0.00143923315     -1.78054242
0.016                -0.00176437     -2.03221276      -100.807582      88.6285776      -100.807582      88.6285775   -0.00159586638     -2.03533536
0.018             -0.00194716851     -2.28690584      -99.7676651       88.528074      -99.7676651       88.528074     -0.001762251      -2.2903284
0.02              -0.00212134582     -2.54136869      -98.8366067      88.4205234      -98.8366067      88.4205234   -0.00192110184     -2.54512349
0.022             -0.00223326073     -2.79520499      -97.9949187      88.3127889      -97.9949187      88.3127889   -0.00202193386     -2.79937246
0.024             -0.00232651437     -3.04900073      -97.2255146      88.1978454      -97.2255146      88.1978454    -0.0021057372     -3.05358585
0.026             -0.00247342192     -3.30327358      -96.5157264      88.0647405      -96.5157264      88.0647405   -0.00223937176     -3.30821634
0.028             -0.00263095759     -3.55763566      -95.8577169      87.9224017      -95.8577169      87.9224017   -0.00238307365     -3.56292595
0.03              -0.00278377717     -3.81189846       -95.244757      87.7742876       -95.244757      87.7742875   -0.00252266399     -3.81755097
0.032             -0.00289624285     -4.06584319      -94.6714268      87.6244678      -94.6714268      87.6244678   -0.00262534527     -4.07189415
0.034              -0.0029990857     -4.31978176      -94.1323056      87.4701341      -94.1323056      87.4701341   -0.00271938224     -4.32623161
0.036             -0.00313291178     -4.57398506       -93.622868      87.3084493       -93.622868      87.3084493   -0.00284185512     -4.58080187
0.038             -0.00327178886     -4.82823557       -93.140327       87.142376       -93.140327       87.142376   -0.00296909469     -4.83541493
0.04              -0.00340695521     -5.08243401      -92.6820763      86.9730597      -92.6820763      86.9730597   -0.00309310427     -5.08998474
0.042             -0.00351763887     -5.33646324      -92.2458763      86.8023002      -92.2458763      86.8023002   -0.00319501904     -5.34439982
0.044             -0.00362224799     -5.59048806      -91.8294028      86.6288156      -91.8294028      86.6288156   -0.00329155017     -5.59881042
0.046             -0.00374825744     -5.84468256      -91.4306165      86.4510803      -91.4306165      86.4510803   -0.00340752188     -5.85337409
0.048             -0.00387743904     -6.09890256      -91.0481895      86.2705867      -91.0481895      86.2705867   -0.00352646925      -6.1079624
0.05              -0.00400380528     -6.35308545      -90.6808388      86.0878847      -90.6808388      86.0878847   -0.00364298469     -6.36252043
0.052             -0.00411310005     -6.60716159      -90.3274312      85.9039273      -90.3274312      85.9039273   -0.00374422746     -6.61697438
0.054             -0.00421814231     -6.86123558      -89.9867624      85.7179541      -89.9867624      85.7179541    -0.0038417396     -6.87142558
0.056             -0.00433910797     -7.11542784      -89.6577431      85.5289715      -89.6577431      85.5289715   -0.00395363518     -7.12598862
0.058             -0.00446230792     -7.36963625      -89.3396466       85.337862      -89.3396466       85.337862   -0.00406762663     -7.38056893
0.06              -0.00458332361     -7.62381753      -89.0317538      85.1449321      -89.0317538      85.1449321   -0.00417974832     -7.63512742
0.062             -0.00469158425      -7.8779289      -88.7334149       84.950746      -88.7334149       84.950746   -0.00428053103     -7.88961008
0.064             -0.00479667007     -8.13203987      -88.4439308      84.7548013      -88.4439309      84.7548013   -0.00437855379      -8.1440913
0.066             -0.00491423823     -8.38623658      -88.1626556      84.5564047      -88.1626556      84.5564047   -0.00448780229     -8.39865945
0.068             -0.00503351198     -8.64044427      -87.8891506      84.3561257      -87.8891506      84.3561257   -0.00459865198     -8.65324111
0.07              -0.00515105417     -8.89463158       -87.622975      84.1541508       -87.622975      84.1541508   -0.00470803358     -8.90780664
0.072             -0.00525861815     -9.14877356      -87.3637218      83.9508415      -87.3637218      83.9508415   -0.00480859163     -9.16231415
0.074             -0.00536370807     -9.40291658       -87.110953      83.7458443       -87.110953      83.7458443   -0.00490701725     -9.41682122
0.076              -0.0054789492      -9.6571228      -86.8642573       83.538654      -86.8642573       83.538654   -0.00501454157     -9.67139885
0.078             -0.00559556801     -9.91133678      -86.6233503      83.3296615      -86.6233503      83.3296615   -0.00512336113     -9.92598786
0.08              -0.00571079054     -10.1655352      -86.3879436      83.1189887      -86.3879436      83.1189887   -0.00523100895     -10.1805648
0.082             -0.00581795302     -10.4197062      -86.1577653      82.9068809      -86.1577653      82.9068809   -0.00533156114     -10.4350959
0.084             -0.00592312914     -10.6738795      -85.9325256      82.6930799      -85.9325256      82.6930799   -0.00543041544     -10.6896274
0.086             -0.00603678905     -10.9280993       -85.711949      82.4772061       -85.711949      82.4772061   -0.00553685515      -10.944218
0.088             -0.00615160922     -11.1823247      -85.4958409      82.2595413      -85.4958409      82.2595413   -0.00564438787     -11.1988188
0.09              -0.00626528954     -11.4365382       -85.284003        82.04017       -85.284003        82.04017   -0.00575097472     -11.4534106
0.092             -0.00637230472      -11.690738      -85.0762443      81.8192664      -85.0762443      81.8192664   -0.00585171603     -11.7079652
0.094             -0.00647769084     -11.9449413      -84.8723653      81.5966375      -84.8723653      81.5966375    -0.0059510764      -11.962521
0.096             -0.00659031867     -12.1991782      -84.6721746      81.3719924      -84.6721746      81.3719924   -0.00605690054     -12.2171277
0.098              -0.0067039557     -12.4534191       -84.475533      81.1455423       -84.475533      81.1455423   -0.00616367763     -12.4717437
0.1               -0.00681665486      -12.707651      -84.2822989      80.9173493      -84.2822989      80.9173493   -0.00626968621     -12.7263532
0.102             -0.00692374355     -12.9618804      -84.0923328      80.6875415      -84.0923328      80.6875415   -0.00637078991     -12.9809321
0.104             -0.00702947583     -13.2161144      -83.9054931      80.4559732      -83.9054931      80.4559732   -0.00647075356     -13.2355129
0.106             -0.00714149518     -13.4703716       -83.721643      80.2224187       -83.721643      80.2224187   -0.00657632295     -13.4901382
0.108             -0.00725441531     -13.7246315      -83.5406795      79.9870415      -83.5406795      79.9870415   -0.00668274508     -13.7447726
0.11              -0.00736656086     -13.9788847      -83.3624984      79.7498898      -83.3624984      79.7498898   -0.00678854167     -13.9994023
0.112             -0.00747391834     -14.2331449      -83.1869941      79.5110608      -83.1869941      79.5110608   -0.00689016365     -14.2540067
0.114             -0.00758013448     -14.4874107      -83.0140639      79.2704442      -83.0140639      79.2704442    -0.0069908349     -14.5086134
0.116              -0.0076918856     -14.7416909      -82.8436081      79.0278644      -82.8436081      79.0278644   -0.00709643888       -14.76326
0.118             -0.00780445805      -14.995973      -82.6755482       78.783451      -82.6755482       78.783451   -0.00720282238     -15.0179153
0.12              -0.00791639104     -15.2502504      -82.5098054      78.5372436      -82.5098054      78.5372436   -0.00730869836     -15.2725677
0.122             -0.00802419357     -15.5045428      -82.3462975      78.2893178      -82.3462975      78.2893178   -0.00741098125     -15.5271989
0.124             -0.00813102932     -15.7588418      -82.1849488       78.039591      -82.1849488       78.039591   -0.00751246656      -15.781833
0.126             -0.00824279561     -16.0131479      -82.0256855      77.7879265      -82.0256855      77.7879265   -0.00761834599     -16.0365031
0.128             -0.00835532434     -16.2674551      -81.8684462      77.5344295      -81.8684462      77.5344295   -0.00772495079      -16.291182
0.13              -0.00846732787     -16.5217592      -81.7131699      77.2791341      -81.7131699      77.2791341   -0.00783114767     -16.5458593
0.132             -0.00857573796     -16.7760855      -81.5597912      77.0221004      -81.5597912      77.0221004    -0.0079342245     -16.8005188
0.134             -0.00868332649     -17.0304195      -81.4082535      76.7632676      -81.4082536      76.7632676   -0.00803663076     -17.0551817
0.136             -0.00879535183      -17.284754      -81.2585017      76.5025306      -81.2585017      76.5025306   -0.00814299294     -17.3098777
0.138             -0.00890809592     -17.5390889      -81.1104865      76.2399759      -81.1104865      76.2399759   -0.00825004043     -17.5645824
0.14              -0.00902041335     -17.7934223      -80.9641599      75.9756342      -80.9641599      75.9756342   -0.00835676574     -17.8192869
0.142             -0.00912958388     -18.0477843      -80.8194686      75.7095541      -80.8194686      75.7095541    -0.0084607629     -18.0739763
0.144             -0.00923805634     -18.3021551      -80.6763699      75.4416927      -80.6763699      75.4416926   -0.00856419722     -18.3286697
0.146             -0.00935055693     -18.5565206      -80.5348223      75.1719699      -80.5348223      75.1719699   -0.00867122613     -18.5833937
0.148             -0.00946374419     -18.8108859      -80.3947856      74.9004587      -80.3947856      74.9004587     -0.008778911     -18.8381266
0.15              -0.00957659135      -19.065251      -80.2562213      74.6271871      -80.2562213      74.6271871   -0.00888634889     -19.0928603
0.152             -0.00968666883     -19.3196505      -80.1190849      74.3521948      -80.1190849      74.3521948   -0.00899138857     -19.3475813
0.154             -0.00979615537     -19.5740599      -79.9833441      74.0754535      -79.9833441      74.0754535   -0.00909595863     -19.6023068
0.156             -0.00990932801     -19.8284588      -79.8489679      73.7969046      -79.8489679      73.7969046   -0.00920382204     -19.8570611
0.158              -0.0100231644     -20.0828571      -79.7159224      73.5166094      -79.7159224      73.5166094   -0.00931232051     -20.1118243
0.16               -0.0101367381     -20.3372563      -79.5841765      73.2345945      -79.5841765      73.2345945   -0.00942063909     -20.3665893
0.162              -0.0102478652     -20.5916953      -79.4536923      72.9508926      -79.4536923      72.9508926   -0.00952684125     -20.6213437
0.164              -0.0103584961     -20.8461453      -79.3244454      72.6654874      -79.3244454      72.6654874   -0.00963265595     -20.8761031
0.166              -0.0104725242       -21.10058      -79.1964123       72.378338      -79.1964123       72.378338   -0.00974151059     -21.1308896
0.168              -0.0105872007     -21.3550137      -79.0695645      72.0894969      -79.0695645      72.0894969   -0.00985098621     -21.3856853
0.17               -0.0107016846     -21.6094493      -78.9438761       71.798989      -78.9438761       71.798989   -0.00996034282     -21.6404837
0.172              -0.0108140023     -21.8639298      -78.8193144      71.5068416      -78.8193144      71.5068416    -0.0100678268     -21.8952733
0.174              -0.0109259089     -22.1184223       -78.695861      71.2130485       -78.695861      71.2130485     -0.010174997     -22.1500683
0.176               -0.011040967     -22.3728952      -78.5734984      70.9175837      -78.5734984      70.9175837    -0.0102849924     -22.4048891
0.178              -0.0111566643     -22.6273666      -78.4522019      70.6204922      -78.4522019      70.6204922    -0.0103956003     -22.6597193
0.18               -0.0112722337      -22.881841      -78.3319497      70.3217978      -78.3319497      70.3217978    -0.0105061454      -22.914553
0.182              -0.0113858831     -23.1363649      -78.2127132      70.0215231      -78.2127132      70.0215231    -0.0106150312     -23.1693796
0.184              -0.0114991988      -23.390902      -78.0944787      69.7196702      -78.0944787      69.7196702    -0.0107236703      -23.424212
0.186               -0.011615456     -23.6454153      -77.9772331      69.4162264      -77.9772331      69.4162264    -0.0108349517     -23.6790691
0.188              -0.0117323484     -23.8999268      -77.8609549      69.1112297      -77.8609549      69.1112297    -0.0109468421     -23.9339359
0.19               -0.0118491733     -24.1544422      -77.7456254      68.8047034      -77.7456254      68.8047034    -0.0110587219     -24.1888069
0.192              -0.0119642967     -24.4090115      -77.6312194      68.4966656      -77.6312194      68.4966656    -0.0111691314     -24.4436722
0.194              -0.0120791582     -24.6635951      -77.5177264      68.1871259      -77.5177264      68.1871259    -0.0112793563     -24.6985438
0.196              -0.0121967806     -24.9181511      -77.4051373      67.8760827      -77.4051373      67.8760827    -0.0113920669     -24.9534392
0.198              -0.0123150388      -25.172705      -77.2934326      67.5635682      -77.2934326      67.5635682    -0.0115053871     -25.2083445
0.2                -0.0124332868     -25.4272636      -77.1825964      67.2496048      -77.1825964      67.2496048    -0.0116187463     -25.4632548
0.202              -0.0125500288     -25.6818803       -77.072606      66.9342072       -77.072606      66.9342072    -0.0117308041     -25.7181607
0.204              -0.0126665764     -25.9365124      -76.9634536      66.6173908      -76.9634536      66.6173908    -0.0118427355     -25.9730732
0.206              -0.0127857293     -26.1911133       -76.855133      66.2991639       -76.855133      66.2991639    -0.0119570182     -26.2280088
0.208              -0.0129055229     -26.4457118      -76.7476266      65.9795537      -76.7476266      65.9795537    -0.0120719149     -26.4829546
0.21               -0.0130253608     -26.7003159      -76.6409205      65.6585815      -76.6409205      65.6585815    -0.0121868981     -26.7379061
0.212              -0.0131438699     -26.9549819      -76.5349939      65.3362589      -76.5349939      65.3362589    -0.0123007324     -26.9928543
0.214              -0.0132622485     -27.2096645      -76.4298414      65.0126064      -76.4298414      65.0126064    -0.0124144954     -27.2478095
0.216               -0.013383098     -27.4643124       -76.325459       64.687641       -76.325459       64.687641    -0.0125304944     -27.5027872
0.218              -0.0135045967     -27.7189578      -76.2218306      64.3613852      -76.2218306      64.3613852     -0.012647115     -27.7577754
0.22               -0.0136261926     -27.9736094      -76.1189439      64.0338594      -76.1189439      64.0338594    -0.0127638682     -28.0127699
0.222              -0.0137466214     -28.2283267      -76.0167797      63.7050722      -76.0167797      63.7050722    -0.0128796115     -28.2677622
0.224              -0.0138669808     -28.4830617      -75.9153344      63.3750485      -75.9153344      63.3750485    -0.0129953363     -28.5227618
0.226              -0.0139896952     -28.7377589      -75.8146058      63.0438131      -75.8146058      63.0438131     -0.013113198     -28.7777835
0.228              -0.0141130708     -28.9924531      -75.7145789       62.711384      -75.7145789       62.711384    -0.0132316922      -29.032816
0.23               -0.0142365952     -29.2471545      -75.6152429      62.3777808      -75.6152429      62.3777808    -0.0133503638     -29.2878553
0.232              -0.0143591011      -29.501925      -75.5165799      62.0430094      -75.5165799      62.0430094    -0.0134681533     -29.5428934
0.234               -0.014481597     -29.7567144      -75.4185875      61.7070984      -75.4185875      61.7070984    -0.0135859755     -29.7979393
0.236               -0.014606348     -30.0114628      -75.3212651      61.3700794      -75.3212651      61.3700794    -0.0137058498     -30.0530067
0.238              -0.0147317751     -30.2662081      -75.2245986      61.0319664      -75.2245986      61.0319664    -0.0138263701     -30.3080853
0.24               -0.0148574018     -30.5209611      -75.1285783      60.6927781      -75.1285783      60.6927781    -0.0139471121     -30.5631714
0.242               -0.014982148     -30.7757867      -75.0331875      60.3525178      -75.0331875      60.3525178    -0.0140670904      -30.818257
0.244              -0.0151069421     -31.0306324      -74.9384247      60.0112175      -74.9384247      60.0112175    -0.0141871515     -31.0733507
0.246              -0.0152339052     -31.2854341      -74.8442906      59.6689146      -74.8442906      59.6689146     -0.014309192     -31.3284658
0.248              -0.0153615625     -31.5402325      -74.7507719      59.3256195      -74.7507719      59.3256195    -0.0144318949     -31.5835922
0.25               -0.0154894698     -31.7950393      -74.6578597        58.98135      -74.6578597        58.98135    -0.0145548635     -31.8387268
0.252              -0.0156166253     -32.0499218      -74.5655382       58.636107      -74.5655382       58.636107     -0.014677179     -32.0938616
0.254              -0.0157438858     -32.3048256       -74.473807      58.2899252       -74.473807      58.2899252    -0.0147996265      -32.349005
0.256              -0.0158732416     -32.5596827      -74.3826673      57.9428474      -74.3826673      57.9428474    -0.0149239916     -32.6041694
0.258              -0.0160033125     -32.8145361      -74.2921068      57.5948806      -74.2921068      57.5948806     -0.015049038     -32.8593455
