! NanoVNA-App
! Date: 2025-10-30 21:20:22
! Start: 10kHz Stop: 4GHz Points: 3201
! S-Parameter data: F S11 S21 S12 S22
# Hz S RI R 50
!     Frequency           S11_Real           S11_Imag           S21_Real           S21_Imag           S12_Real           S12_Imag           S22_Real           S22_Imag
          10000    1.001085520e+00   -6.666202098e-04    3.566965461e-07   -4.734843969e-06    0.000000000e+00    0.000000000e+00    0.000000000e+00    0.000000000e+00
        1259997    9.924302101e-01   -3.238159791e-02    5.227420479e-05   -1.108832657e-05    0.000000000e+00    0.000000000e+00    0.000000000e+00    0.000000000e+00
        2509994    9.942187071e-01   -6.195529178e-02    3.131479025e-05   -1.310743392e-05    0.000000000e+00    0.000000000e+00    0.000000000e+00    0.000000000e+00
        3759991    9.916620255e-01   -9.374099970e-02   -2.804771066e-05   -1.302920282e-06    0.000000000e+00    0.000000000e+00    0.000000000e+00    0.000000000e+00
        5009988    9.877123237e-01   -1.255785823e-01   -5.941838026e-07    1.485459507e-05    0.000000000e+00    0.000000000e+00    0.000000000e+00    0.000000000e+00
        6259985    9.825968146e-01   -1.570602059e-01   -4.183780402e-05    1.842249185e-05    0.000000000e+00    0.000000000e+00    0.000000000e+00    0.000000000e+00
        7509982    9.770668149e-01   -1.870518029e-01   -2.879556268e-05    3.636814654e-06    0.000000000e+00    0.000000000e+00    0.000000000e+00    0.000000000e+00
        8759979    9.708061218e-01   -2.168469429e-01    2.154149115e-05    1.580175012e-05    0.000000000e+00    0.000000000e+00    0.000000000e+00    0.000000000e+00
       10009976    9.634080529e-01   -2.474940866e-01    1.884810627e-05   -2.515781671e-05    0.000000000e+00    0.000000000e+00    0.000000000e+00    0.000000000e+00
       11259973    9.549896121e-01   -2.769063115e-01   -2.563931048e-06   -1.111347228e-05    0.000000000e+00    0.000000000e+00    0.000000000e+00    0.000000000e+00
       12509970    9.456161857e-01   -3.054140508e-01   -9.777955711e-06    3.131013364e-05    0.000000000e+00    0.000000000e+00    0.000000000e+00    0.000000000e+00
       13759967    9.362394214e-01   -3.351158798e-01    1.283362508e-06    4.256796092e-05    0.000000000e+00    0.000000000e+00    0.000000000e+00    0.000000000e+00
       15009964    9.252302051e-01   -3.637931645e-01   -9.649433196e-06    5.293358117e-05    0.000000000e+00    0.000000000e+00    0.000000000e+00    0.000000000e+00
       16259961    9.134108424e-01   -3.917205036e-01    4.689116031e-05    2.441741526e-05    0.000000000e+00    0.000000000e+00    0.000000000e+00    0.000000000e+00
       17509958    9.010975957e-01   -4.199518859e-01    2.947915345e-05    3.535766155e-05    0.000000000e+00    0.000000000e+00    0.000000000e+00    0.000000000e+00
       18759955    8.879530430e-01   -4.470202029e-01   -3.944244236e-05    3.345683217e-05    0.000000000e+00    0.000000000e+00    0.000000000e+00    0.000000000e+00
       20009952    8.735560179e-01   -4.746961594e-01   -2.644304186e-05    2.735015005e-05    0.000000000e+00    0.000000000e+00    0.000000000e+00    0.000000000e+00
       21259949    8.586472273e-01   -5.003952384e-01    2.927705646e-05    6.074737757e-05    0.000000000e+00    0.000000000e+00    0.000000000e+00    0.000000000e+00
       22509946    8.427086473e-01   -5.263250470e-01    6.255321205e-05    4.608742893e-05    0.000000000e+00    0.000000000e+00    0.000000000e+00    0.000000000e+00
       23759943    8.263586760e-01   -5.526555777e-01    1.999363303e-05    4.911702126e-05    0.000000000e+00    0.000000000e+00    0.000000000e+00    0.000000000e+00
       25009940    8.097906709e-01   -5.776033401e-01    1.941714436e-05    7.823761553e-05    0.000000000e+00    0.000000000e+00    0.000000000e+00    0.000000000e+00
       26259937    7.917497754e-01   -6.018126607e-01    7.594004273e-06    2.994202077e-05    0.000000000e+00    0.000000000e+00    0.000000000e+00    0.000000000e+00
       27509934    7.735849023e-01   -6.257216930e-01    1.858826727e-05    4.859734327e-05    0.000000000e+00    0.000000000e+00    0.000000000e+00    0.000000000e+00
       28759931    7.540515661e-01   -6.487780213e-01   -1.902692020e-06    5.747564137e-05    0.000000000e+00    0.000000000e+00    0.000000000e+00    0.000000000e+00
       30009928    7.346673012e-01   -6.718564630e-01    6.513670087e-06    7.321778685e-05    0.000000000e+00    0.000000000e+00    0.000000000e+00    0.000000000e+00
       31259925    7.141712308e-01   -6.938303709e-01    2.221297473e-05    4.793982953e-05    0.000000000e+00    0.000000000e+00    0.000000000e+00    0.000000000e+00
       32509922    6.925631166e-01   -7.144647241e-01    1.930724829e-05    4.814285785e-05    0.000000000e+00    0.000000000e+00    0.000000000e+00    0.000000000e+00
       33759919    6.717177629e-01   -7.353060842e-01    6.745103747e-05    9.892508388e-06    0.000000000e+00    0.000000000e+00    0.000000000e+00    0.000000000e+00
       35009916    6.494731903e-01   -7.550399303e-01    9.567476809e-06    7.221195847e-05    0.000000000e+00    0.000000000e+00    0.000000000e+00    0.000000000e+00
       36259913    6.265371442e-01   -7.745914459e-01    3.208592534e-05    5.938019603e-05    0.000000000e+00    0.000000000e+00    0.000000000e+00    0.000000000e+00
       37509910    6.032663584e-01   -7.931985259e-01    2.053100616e-05    5.578715354e-05    0.000000000e+00    0.000000000e+00    0.000000000e+00    0.000000000e+00
       38759907    5.797002912e-01   -8.113432527e-01    7.993821055e-05    9.614042938e-05    0.000000000e+00    0.000000000e+00    0.000000000e+00    0.000000000e+00
       40009904    5.557485223e-01   -8.281047344e-01    4.598870873e-05    3.962311894e-05    0.000000000e+00    0.000000000e+00    0.000000000e+00    0.000000000e+00
       41259901    5.310921073e-01   -8.445137739e-01    5.614291877e-05    8.362624794e-05    0.000000000e+00    0.000000000e+00    0.000000000e+00    0.000000000e+00
       42509898    5.064218640e-01   -8.596636057e-01    1.839175820e-05    7.592421025e-05    0.000000000e+00    0.000000000e+00    0.000000000e+00    0.000000000e+00
       43759895    4.812236130e-01   -8.745744824e-01    7.960107177e-05    8.746143430e-05    0.000000000e+00    0.000000000e+00    0.000000000e+00    0.000000000e+00
       45009892    4.550417662e-01   -8.890140653e-01    5.667377263e-05    3.651715815e-05    0.000000000e+00    0.000000000e+00    0.000000000e+00    0.000000000e+00
       46259889    4.290528893e-01   -9.020695090e-01    7.802806795e-05    9.508710355e-05    0.000000000e+00    0.000000000e+00    0.000000000e+00    0.000000000e+00
       47509886    4.034360945e-01   -9.148380756e-01    4.649069160e-05    5.750078708e-05    0.000000000e+00    0.000000000e+00    0.000000000e+00    0.000000000e+00
       48759883    3.763733506e-01   -9.266137481e-01    6.494298577e-05    3.594625741e-05    0.000000000e+00    0.000000000e+00    0.000000000e+00    0.000000000e+00
       50009880    3.495592475e-01   -9.367942214e-01    2.176687121e-05    4.761852324e-06    0.000000000e+00    0.000000000e+00    0.000000000e+00    0.000000000e+00
       51259877    3.224850893e-01   -9.473636150e-01    8.541811258e-05    6.485730410e-05    0.000000000e+00    0.000000000e+00    0.000000000e+00    0.000000000e+00
       52509874    2.951350808e-01   -9.561975598e-01    6.289780140e-05    6.950367242e-05    0.000000000e+00    0.000000000e+00    0.000000000e+00    0.000000000e+00
       53759871    2.676574588e-01   -9.648284912e-01    7.238797843e-05    6.505195051e-05    0.000000000e+00    0.000000000e+00    0.000000000e+00    0.000000000e+00
       55009868    2.399175912e-01   -9.723314047e-01    9.758770466e-05    4.774611443e-05    0.000000000e+00    0.000000000e+00    0.000000000e+00    0.000000000e+00
       56259865    2.118270993e-01   -9.791527390e-01    4.986301064e-05    5.803257227e-05    0.000000000e+00    0.000000000e+00    0.000000000e+00    0.000000000e+00
       57509862    1.850274503e-01   -9.852023721e-01    1.029148698e-04    6.427802145e-05    0.000000000e+00    0.000000000e+00    0.000000000e+00    0.000000000e+00
       58759859    1.559430957e-01   -9.907447696e-01    8.859019727e-05    5.841534585e-05    0.000000000e+00    0.000000000e+00    0.000000000e+00    0.000000000e+00
       60009856    1.278162003e-01   -9.952812791e-01    7.631070912e-05    4.217214882e-05    0.000000000e+00    0.000000000e+00    0.000000000e+00    0.000000000e+00
       61259853    9.979486465e-02   -9.988918304e-01    1.067202538e-04    8.027628064e-05    0.000000000e+00    0.000000000e+00    0.000000000e+00    0.000000000e+00
       62509850    7.132163644e-02   -1.002199411e+00    1.060348004e-04    7.476471364e-05    0.000000000e+00    0.000000000e+00    0.000000000e+00    0.000000000e+00
       63759847    4.344378412e-02   -1.003786325e+00    9.346287698e-05    2.137571573e-05    0.000000000e+00    0.000000000e+00    0.000000000e+00    0.000000000e+00
       65009844    1.517017838e-02   -1.005208850e+00    1.432346180e-04    7.882993668e-05    0.000000000e+00    0.000000000e+00    0.000000000e+00    0.000000000e+00
       66259841   -1.286723465e-02   -1.005885959e+00    1.169303432e-04    3.056321293e-05    0.000000000e+00    0.000000000e+00    0.000000000e+00    0.000000000e+00
       67509838   -4.188674316e-02   -1.005694628e+00    1.138038933e-04    9.310431778e-06    0.000000000e+00    0.000000000e+00    0.000000000e+00    0.000000000e+00
       68759835   -6.938479841e-02   -1.005085826e+00    1.646708697e-04    1.903437078e-05    0.000000000e+00    0.000000000e+00    0.000000000e+00    0.000000000e+00
       70009832   -9.735060483e-02   -1.003178835e+00    1.337332651e-04    1.224316657e-05    0.000000000e+00    0.000000000e+00    0.000000000e+00    0.000000000e+00
       71259829   -1.251503080e-01   -1.000235796e+00    1.287925988e-04    8.432380855e-05    0.000000000e+00    0.000000000e+00    0.000000000e+00    0.000000000e+00
       72509826   -1.533454210e-01   -9.965062141e-01    1.402944326e-04    2.376362681e-05    0.000000000e+00    0.000000000e+00    0.000000000e+00    0.000000000e+00
       73759823   -1.809627414e-01   -9.931545258e-01    1.342594624e-04    1.891050488e-05    0.000000000e+00    0.000000000e+00    0.000000000e+00    0.000000000e+00
       75009820   -2.084492743e-01   -9.881209135e-01    1.273062080e-04   -4.245899618e-06    0.000000000e+00    0.000000000e+00    0.000000000e+00    0.000000000e+00
       76259817   -2.353571951e-01   -9.829101562e-01    1.299222931e-04    2.995878458e-05    0.000000000e+00    0.000000000e+00    0.000000000e+00    0.000000000e+00
       77509814   -2.626612186e-01   -9.764745235e-01    1.351488754e-04    2.007931471e-06    0.000000000e+00    0.000000000e+00    0.000000000e+00    0.000000000e+00
       78759811   -2.898562849e-01   -9.692026377e-01    1.377305016e-04    2.112332731e-05    0.000000000e+00    0.000000000e+00    0.000000000e+00    0.000000000e+00
       80009808   -3.165903389e-01   -9.619011283e-01    1.789582893e-04   -3.518909216e-05    0.000000000e+00    0.000000000e+00    0.000000000e+00    0.000000000e+00
       81259805   -3.426930010e-01   -9.532811642e-01    1.938734204e-04    4.495494068e-06    0.000000000e+00    0.000000000e+00    0.000000000e+00    0.000000000e+00
       82509802   -3.686318099e-01   -9.444409609e-01    1.725368202e-04    1.158192754e-05    0.000000000e+00    0.000000000e+00    0.000000000e+00    0.000000000e+00
       83759799   -3.942776322e-01   -9.340138435e-01    1.961141825e-04   -7.593072951e-06    0.000000000e+00    0.000000000e+00    0.000000000e+00    0.000000000e+00
       85009796   -4.186398983e-01   -9.235686064e-01    1.665800810e-04    1.339334995e-05    0.000000000e+00    0.000000000e+00    0.000000000e+00    0.000000000e+00
       86259793   -4.451006949e-01   -9.127764702e-01    1.976136118e-04    1.810584217e-05    0.000000000e+00    0.000000000e+00    0.000000000e+00    0.000000000e+00
       87509790   -4.689596593e-01   -9.013783932e-01    1.877360046e-04    1.168344170e-05    0.000000000e+00    0.000000000e+00    0.000000000e+00    0.000000000e+00
       88759787   -4.935144782e-01   -8.884007335e-01    1.542968675e-04    6.551854312e-06    0.000000000e+00    0.000000000e+00    0.000000000e+00    0.000000000e+00
       90009784   -5.173003674e-01   -8.760505319e-01    1.818444580e-04   -8.050352335e-06    0.000000000e+00    0.000000000e+00    0.000000000e+00    0.000000000e+00
       91259781   -5.405938625e-01   -8.620485067e-01    1.667095348e-04    3.226101398e-06    0.000000000e+00    0.000000000e+00    0.000000000e+00    0.000000000e+00
       92509778   -5.641393065e-01   -8.472730517e-01    2.254219726e-04   -4.050973803e-05    0.000000000e+00    0.000000000e+00    0.000000000e+00    0.000000000e+00
       93759775   -5.866032839e-01   -8.322193027e-01    1.825941727e-04   -1.264549792e-05    0.000000000e+00    0.000000000e+00    0.000000000e+00    0.000000000e+00
       95009772   -6.087135077e-01   -8.169279099e-01    1.662811264e-04   -6.682146341e-05    0.000000000e+00    0.000000000e+00    0.000000000e+00    0.000000000e+00
       96259769   -6.305492520e-01   -8.005059361e-01    1.896247268e-04   -6.345659494e-05    0.000000000e+00    0.000000000e+00    0.000000000e+00    0.000000000e+00
       97509766   -6.519669890e-01   -7.840783596e-01    1.818351448e-04   -4.602503031e-05    0.000000000e+00    0.000000000e+00    0.000000000e+00    0.000000000e+00
       98759763   -6.726699471e-01   -7.669205666e-01    2.163015306e-04   -2.963747829e-05    0.000000000e+00    0.000000000e+00    0.000000000e+00    0.000000000e+00
      100009760   -6.595725417e-01   -6.911177039e-01    2.006301656e-04   -8.905958384e-05    0.000000000e+00    0.000000000e+00    0.000000000e+00    0.000000000e+00
      101259757   -6.763105392e-01   -6.732735634e-01    1.790169626e-04   -8.079316467e-05    0.000000000e+00    0.000000000e+00    0.000000000e+00    0.000000000e+00
      102509754   -6.935037971e-01   -6.559467912e-01    1.754034311e-04   -8.129980415e-05    0.000000000e+00    0.000000000e+00    0.000000000e+00    0.000000000e+00
      103759751   -7.094845176e-01   -6.382982731e-01    1.898007467e-04   -6.925221533e-05    0.000000000e+00    0.000000000e+00    0.000000000e+00    0.000000000e+00
      105009748   -7.252653241e-01   -6.205325723e-01    1.872079447e-04   -1.134844497e-04    0.000000000e+00    0.000000000e+00    0.000000000e+00    0.000000000e+00
      106259745   -7.407518029e-01   -6.017265320e-01    1.666471362e-04   -1.015188172e-04    0.000000000e+00    0.000000000e+00    0.000000000e+00    0.000000000e+00
      107509742   -7.557447553e-01   -5.833019614e-01    1.540128142e-04   -9.571760893e-05    0.000000000e+00    0.000000000e+00    0.000000000e+00    0.000000000e+00
      108759739   -7.697339058e-01   -5.636616349e-01    1.727892086e-04   -1.004152000e-04    0.000000000e+00    0.000000000e+00    0.000000000e+00    0.000000000e+00
      110009736   -7.836756706e-01   -5.443482399e-01    1.682126895e-04   -1.071523875e-04    0.000000000e+00    0.000000000e+00    0.000000000e+00    0.000000000e+00
      111259733   -7.968711257e-01   -5.241980553e-01    1.867907122e-04   -1.120725647e-04    0.000000000e+00    0.000000000e+00    0.000000000e+00    0.000000000e+00
      112509730   -8.100932837e-01   -5.040327907e-01    1.783166081e-04   -1.085009426e-04    0.000000000e+00    0.000000000e+00    0.000000000e+00    0.000000000e+00
      113759727   -8.222866654e-01   -4.837735891e-01    1.779301092e-04   -1.261215657e-04    0.000000000e+00    0.000000000e+00    0.000000000e+00    0.000000000e+00
      115009724   -8.342607021e-01   -4.632281363e-01    2.059182152e-04   -1.287786290e-04    0.000000000e+00    0.000000000e+00    0.000000000e+00    0.000000000e+00
      116259721   -8.454615474e-01   -4.417647421e-01    1.920396462e-04   -1.426860690e-04    0.000000000e+00    0.000000000e+00    0.000000000e+00    0.000000000e+00
      117509718   -8.563699126e-01   -4.207486510e-01    1.988559961e-04   -1.386757940e-04    0.000000000e+00    0.000000000e+00    0.000000000e+00    0.000000000e+00
      118759715   -8.665973544e-01   -3.992167413e-01    1.847669482e-04   -1.586452127e-04    0.000000000e+00    0.000000000e+00    0.000000000e+00    0.000000000e+00
      120009712   -8.769347072e-01   -3.775376081e-01    1.631202176e-04   -1.519815996e-04    0.000000000e+00    0.000000000e+00    0.000000000e+00    0.000000000e+00
      121259709   -8.862087727e-01   -3.559822440e-01    1.612929627e-04   -1.803254709e-04    0.000000000e+00    0.000000000e+00    0.000000000e+00    0.000000000e+00
      122509706   -8.951668739e-01   -3.335620463e-01    1.552589238e-04   -1.440802589e-04    0.000000000e+00    0.000000000e+00    0.000000000e+00    0.000000000e+00
      123759703   -9.027925134e-01   -3.105590045e-01    1.333402470e-04   -1.611616462e-04    0.000000000e+00    0.000000000e+00    0.000000000e+00    0.000000000e+00
      125009700   -9.113023281e-01   -2.887731194e-01    1.132432371e-04   -1.265248284e-04    0.000000000e+00    0.000000000e+00    0.000000000e+00    0.000000000e+00
      126259697   -9.178720117e-01   -2.651900053e-01    1.658555120e-04   -1.768926159e-04    0.000000000e+00    0.000000000e+00    0.000000000e+00    0.000000000e+00
      127509694   -9.247707129e-01   -2.423294783e-01    1.690285280e-04   -2.015922219e-04    0.000000000e+00    0.000000000e+00    0.000000000e+00    0.000000000e+00
      128759691   -9.307551384e-01   -2.192927152e-01    1.561660320e-04   -1.523075625e-04    0.000000000e+00    0.000000000e+00    0.000000000e+00    0.000000000e+00
      130009688   -9.362471104e-01   -1.957728565e-01    1.411316916e-04   -1.361025497e-04    0.000000000e+00    0.000000000e+00    0.000000000e+00    0.000000000e+00
      131259685   -9.410735369e-01   -1.721865535e-01    1.829341054e-04   -2.006730065e-04    0.000000000e+00    0.000000000e+00    0.000000000e+00    0.000000000e+00
      132509682   -9.451034665e-01   -1.484154463e-01    1.575946808e-04   -1.821154729e-04    0.000000000e+00    0.000000000e+00    0.000000000e+00    0.000000000e+00
      133759679   -9.490563869e-01   -1.244328320e-01    1.336196437e-04   -2.420162782e-04    0.000000000e+00    0.000000000e+00    0.000000000e+00    0.000000000e+00
      135009676   -9.520811439e-01   -1.004528925e-01    1.383060589e-04   -2.221437171e-04    0.000000000e+00    0.000000000e+00    0.000000000e+00    0.000000000e+00
      136259673   -9.543464780e-01   -7.649482042e-02    1.539569348e-04   -2.162940800e-04    0.000000000e+00    0.000000000e+00    0.000000000e+00    0.000000000e+00
      137509670   -9.567811489e-01   -5.211156979e-02    1.482330263e-04   -2.089412883e-04    0.000000000e+00    0.000000000e+00    0.000000000e+00    0.000000000e+00
      138759667   -9.575380087e-01   -2.806588076e-02    1.163221896e-04   -2.096965909e-04    0.000000000e+00    0.000000000e+00    0.000000000e+00    0.000000000e+00
      140009664   -9.586581588e-01   -3.546823747e-03    1.093177125e-04   -2.021891996e-04    0.000000000e+00    0.000000000e+00    0.000000000e+00    0.000000000e+00
      141259661   -9.581802487e-01    2.128336020e-02    1.253066584e-04   -2.260031179e-04    0.000000000e+00    0.000000000e+00    0.000000000e+00    0.000000000e+00
      142509658   -9.580041766e-01    4.568070546e-02    1.335572451e-04   -2.258978784e-04    0.000000000e+00    0.000000000e+00    0.000000000e+00    0.000000000e+00
      143759655   -9.565694928e-01    7.005362213e-02    1.210458577e-04   -2.182302997e-04    0.000000000e+00    0.000000000e+00    0.000000000e+00    0.000000000e+00
      145009652   -9.551143050e-01    9.466757625e-02    1.303832978e-04   -2.336753532e-04    0.000000000e+00    0.000000000e+00    0.000000000e+00    0.000000000e+00
