! NanoVNA-App
! Date: 2025-10-30 21:27:15
! Start: 10kHz Stop: 4GHz Points: 3201
! S-Parameter data: F S11 S21 S12 S22
# Hz S RI R 50
!     Frequency           S11_Real           S11_Imag           S21_Real           S21_Imag           S12_Real           S12_Imag           S22_Real           S22_Imag
          10000    1.000985384e+00   -1.017116010e-04    5.954876542e-06   -2.554617822e-06    0.000000000e+00    0.000000000e+00    0.000000000e+00    0.000000000e+00
        1259997    9.924158454e-01   -3.239957988e-02    1.301988959e-05    6.893649697e-06    0.000000000e+00    0.000000000e+00    0.000000000e+00    0.000000000e+00
        2509994    9.940005541e-01   -6.184168905e-02   -5.466863513e-06    1.996010542e-05    0.000000000e+00    0.000000000e+00    0.000000000e+00    0.000000000e+00
        3759991    9.915300012e-01   -9.307966381e-02    2.191215754e-05    8.590519428e-06    0.000000000e+00    0.000000000e+00    0.000000000e+00    0.000000000e+00
        5009988    9.875687957e-01   -1.244431809e-01    1.115817577e-05    1.395214349e-05    0.000000000e+00    0.000000000e+00    0.000000000e+00    0.000000000e+00
        6259985    9.830104113e-01   -1.549539864e-01    2.451334149e-05    5.789007992e-05    0.000000000e+00    0.000000000e+00    0.000000000e+00    0.000000000e+00
        7509982    9.769753814e-01   -1.852856576e-01    1.927930862e-05   -1.262873411e-06    0.000000000e+00    0.000000000e+00    0.000000000e+00    0.000000000e+00
        8759979    9.709161520e-01   -2.144698054e-01    1.136213541e-07    5.565118045e-05    0.000000000e+00    0.000000000e+00    0.000000000e+00    0.000000000e+00
       10009976    9.633997679e-01   -2.440616488e-01   -1.312606037e-05    1.315865666e-05    0.000000000e+00    0.000000000e+00    0.000000000e+00    0.000000000e+00
       11259973    9.558094144e-01   -2.737877369e-01    2.179853618e-05   -1.685135067e-05    0.000000000e+00    0.000000000e+00    0.000000000e+00    0.000000000e+00
       12509970    9.465456009e-01   -3.019466102e-01   -2.189073712e-05    5.323439837e-05    0.000000000e+00    0.000000000e+00    0.000000000e+00    0.000000000e+00
       13759967    9.370017648e-01   -3.311536908e-01    5.910918117e-05    9.477138519e-06    0.000000000e+00    0.000000000e+00    0.000000000e+00    0.000000000e+00
       15009964    9.265300632e-01   -3.590803444e-01    4.280544817e-05    1.160241663e-05    0.000000000e+00    0.000000000e+00    0.000000000e+00    0.000000000e+00
       16259961    9.147704840e-01   -3.867164552e-01   -1.488719136e-05    2.220086753e-05    0.000000000e+00    0.000000000e+00    0.000000000e+00    0.000000000e+00
       17509958    9.025764465e-01   -4.146514535e-01    3.383122385e-05    3.545731306e-05    0.000000000e+00    0.000000000e+00    0.000000000e+00    0.000000000e+00
       18759955    8.895118833e-01   -4.414227903e-01    8.924864233e-06    2.336408943e-05    0.000000000e+00    0.000000000e+00    0.000000000e+00    0.000000000e+00
       20009952    8.759046197e-01   -4.683236778e-01    2.766773105e-05    5.537364632e-05    0.000000000e+00    0.000000000e+00    0.000000000e+00    0.000000000e+00
       21259949    8.613051772e-01   -4.944790602e-01    1.098867506e-05    5.727633834e-05    0.000000000e+00    0.000000000e+00    0.000000000e+00    0.000000000e+00
       22509946    8.460337520e-01   -5.202999115e-01   -4.787929356e-06    5.666445941e-05    0.000000000e+00    0.000000000e+00    0.000000000e+00    0.000000000e+00
       23759943    8.305591941e-01   -5.460938811e-01   -5.751848221e-06    3.777164966e-05    0.000000000e+00    0.000000000e+00    0.000000000e+00    0.000000000e+00
       25009940    8.135026097e-01   -5.705749393e-01    1.643784344e-05    3.940053284e-05    0.000000000e+00    0.000000000e+00    0.000000000e+00    0.000000000e+00
       26259937    7.960629463e-01   -5.948572755e-01    5.545932800e-05    4.022661597e-05    0.000000000e+00    0.000000000e+00    0.000000000e+00    0.000000000e+00
       27509934    7.778306603e-01   -6.185261607e-01    3.703590482e-05    3.365334123e-05    0.000000000e+00    0.000000000e+00    0.000000000e+00    0.000000000e+00
       28759931    7.596457005e-01   -6.413588524e-01    5.243346095e-05    7.148738950e-05    0.000000000e+00    0.000000000e+00    0.000000000e+00    0.000000000e+00
       30009928    7.400412560e-01   -6.641332507e-01    2.396665514e-05    5.907844752e-05    0.000000000e+00    0.000000000e+00    0.000000000e+00    0.000000000e+00
       31259925    7.202897668e-01   -6.855944395e-01    1.475401223e-05    1.830793917e-05    0.000000000e+00    0.000000000e+00    0.000000000e+00    0.000000000e+00
       32509922    6.991853714e-01   -7.066910267e-01    3.334227949e-05    5.805958062e-05    0.000000000e+00    0.000000000e+00    0.000000000e+00    0.000000000e+00
       33759919    6.783091426e-01   -7.273359299e-01    1.843180507e-05    7.663015276e-05    0.000000000e+00    0.000000000e+00    0.000000000e+00    0.000000000e+00
       35009916    6.566310525e-01   -7.469131947e-01    4.924274981e-05    8.477177471e-05    0.000000000e+00    0.000000000e+00    0.000000000e+00    0.000000000e+00
       36259913    6.343691349e-01   -7.664278150e-01    5.547981709e-05    4.823785275e-05    0.000000000e+00    0.000000000e+00    0.000000000e+00    0.000000000e+00
       37509910    6.122559309e-01   -7.845941186e-01    3.381352872e-05    5.250331014e-05    0.000000000e+00    0.000000000e+00    0.000000000e+00    0.000000000e+00
       38759907    5.889855623e-01   -8.019957542e-01    4.485901445e-05    1.348275691e-05    0.000000000e+00    0.000000000e+00    0.000000000e+00    0.000000000e+00
       40009904    5.654653907e-01   -8.194541931e-01    4.980154335e-05    6.914418191e-05    0.000000000e+00    0.000000000e+00    0.000000000e+00    0.000000000e+00
       41259901    5.417043567e-01   -8.361053467e-01    5.585607141e-05    8.696224540e-05    0.000000000e+00    0.000000000e+00    0.000000000e+00    0.000000000e+00
       42509898    5.171700716e-01   -8.521533012e-01    7.080286741e-05    4.705600441e-05    0.000000000e+00    0.000000000e+00    0.000000000e+00    0.000000000e+00
       43759895    4.918128550e-01   -8.667366505e-01    2.782791853e-05    6.373412907e-05    0.000000000e+00    0.000000000e+00    0.000000000e+00    0.000000000e+00
       45009892    4.671432674e-01   -8.809360862e-01    7.007550448e-05    1.030974090e-04    0.000000000e+00    0.000000000e+00    0.000000000e+00    0.000000000e+00
       46259889    4.417622983e-01   -8.936378360e-01    5.224999040e-05    6.126333028e-05    0.000000000e+00    0.000000000e+00    0.000000000e+00    0.000000000e+00
       47509886    4.165616333e-01   -9.067958593e-01    1.202234998e-04    5.070585757e-05    0.000000000e+00    0.000000000e+00    0.000000000e+00    0.000000000e+00
       48759883    3.900219500e-01   -9.189379811e-01    6.137788296e-05    9.774602950e-05    0.000000000e+00    0.000000000e+00    0.000000000e+00    0.000000000e+00
       50009880    3.637502789e-01   -9.291964769e-01    1.005921513e-04    7.024686784e-05    0.000000000e+00    0.000000000e+00    0.000000000e+00    0.000000000e+00
       51259877    3.368621171e-01   -9.403252602e-01    9.660795331e-05    6.269663572e-05    0.000000000e+00    0.000000000e+00    0.000000000e+00    0.000000000e+00
       52509874    3.102765083e-01   -9.494886398e-01    8.531287313e-05    5.414150655e-05    0.000000000e+00    0.000000000e+00    0.000000000e+00    0.000000000e+00
       53759871    2.835415900e-01   -9.583109021e-01    8.306186646e-05    9.870529175e-05    0.000000000e+00    0.000000000e+00    0.000000000e+00    0.000000000e+00
       55009868    2.561308742e-01   -9.662457705e-01    7.182825357e-05    9.025260806e-05    0.000000000e+00    0.000000000e+00    0.000000000e+00    0.000000000e+00
       56259865    2.288063914e-01   -9.740865827e-01    1.031020656e-04    6.076414138e-05    0.000000000e+00    0.000000000e+00    0.000000000e+00    0.000000000e+00
       57509862    2.015077472e-01   -9.797643423e-01    1.082504168e-04    7.368996739e-05    0.000000000e+00    0.000000000e+00    0.000000000e+00    0.000000000e+00
       58759859    1.733846366e-01   -9.856680036e-01    8.422415704e-05    6.420072168e-05    0.000000000e+00    0.000000000e+00    0.000000000e+00    0.000000000e+00
       60009856    1.462635249e-01   -9.908933640e-01    1.000678167e-04    4.192814231e-05    0.000000000e+00    0.000000000e+00    0.000000000e+00    0.000000000e+00
       61259853    1.183664128e-01   -9.948202372e-01    8.965563029e-05    5.881953984e-05    0.000000000e+00    0.000000000e+00    0.000000000e+00    0.000000000e+00
       62509850    9.102971107e-02   -9.979929924e-01    1.203380525e-04    7.479265332e-05    0.000000000e+00    0.000000000e+00    0.000000000e+00    0.000000000e+00
       63759847    6.263917685e-02   -1.001278281e+00    6.543751806e-05    5.445815623e-05    0.000000000e+00    0.000000000e+00    0.000000000e+00    0.000000000e+00
       65009844    3.454211727e-02   -1.002723098e+00    9.288731962e-05    2.042017877e-05    0.000000000e+00    0.000000000e+00    0.000000000e+00    0.000000000e+00
       66259841    6.875447929e-03   -1.004289865e+00    1.116981730e-04    3.455858678e-05    0.000000000e+00    0.000000000e+00    0.000000000e+00    0.000000000e+00
       67509838   -2.045612410e-02   -1.004201174e+00    1.235958189e-04    5.784723908e-05    0.000000000e+00    0.000000000e+00    0.000000000e+00    0.000000000e+00
       68759835   -4.825763032e-02   -1.003349304e+00    1.136744395e-04    3.673974425e-05    0.000000000e+00    0.000000000e+00    0.000000000e+00    0.000000000e+00
       70009832   -7.613656670e-02   -1.002326012e+00    1.514470205e-04    4.075188190e-05    0.000000000e+00    0.000000000e+00    0.000000000e+00    0.000000000e+00
       71259829   -1.038426012e-01   -1.000930190e+00    1.218505204e-04    5.615781993e-05    0.000000000e+00    0.000000000e+00    0.000000000e+00    0.000000000e+00
       72509826   -1.312684566e-01   -9.985387325e-01    1.314179972e-04    3.863219172e-05    0.000000000e+00    0.000000000e+00    0.000000000e+00    0.000000000e+00
       73759823   -1.585530192e-01   -9.948153496e-01    1.283902675e-04    2.255477011e-05    0.000000000e+00    0.000000000e+00    0.000000000e+00    0.000000000e+00
       75009820   -1.856293827e-01   -9.901565909e-01    1.749526709e-04    7.544644177e-06    0.000000000e+00    0.000000000e+00    0.000000000e+00    0.000000000e+00
       76259817   -2.125701010e-01   -9.856446981e-01    1.380257308e-04    2.983678132e-05    0.000000000e+00    0.000000000e+00    0.000000000e+00    0.000000000e+00
       77509814   -2.395083308e-01   -9.801326394e-01    1.078899950e-04    5.237758160e-06    0.000000000e+00    0.000000000e+00    0.000000000e+00    0.000000000e+00
       78759811   -2.655782104e-01   -9.732627869e-01    1.760311425e-04    1.625437289e-05    0.000000000e+00    0.000000000e+00    0.000000000e+00    0.000000000e+00
       80009808   -2.925723493e-01   -9.663806558e-01    1.699188724e-04    1.430045813e-05    0.000000000e+00    0.000000000e+00    0.000000000e+00    0.000000000e+00
       81259805   -3.184162974e-01   -9.587589502e-01    1.255245879e-04    2.944841981e-06    0.000000000e+00    0.000000000e+00    0.000000000e+00    0.000000000e+00
       82509802   -3.445138931e-01   -9.503881335e-01    1.382501796e-04    2.234894782e-05    0.000000000e+00    0.000000000e+00    0.000000000e+00    0.000000000e+00
       83759799   -3.698816895e-01   -9.415095448e-01    1.997575164e-04    1.419894397e-05    0.000000000e+00    0.000000000e+00    0.000000000e+00    0.000000000e+00
       85009796   -3.946634531e-01   -9.320291281e-01    1.226868480e-04    5.189329386e-06    0.000000000e+00    0.000000000e+00    0.000000000e+00    0.000000000e+00
       86259793   -4.194164276e-01   -9.208025336e-01    1.466535032e-04   -8.047558367e-06    0.000000000e+00    0.000000000e+00    0.000000000e+00    0.000000000e+00
       87509790   -4.448403418e-01   -9.105711579e-01    1.706331968e-04    1.067388803e-05    0.000000000e+00    0.000000000e+00    0.000000000e+00    0.000000000e+00
       88759787   -4.687961340e-01   -8.986128569e-01    1.592440531e-04   -2.939067781e-05    0.000000000e+00    0.000000000e+00    0.000000000e+00    0.000000000e+00
       90009784   -4.924453497e-01   -8.864806890e-01    1.522274688e-04   -3.674067557e-05    0.000000000e+00    0.000000000e+00    0.000000000e+00    0.000000000e+00
       91259781   -5.161591768e-01   -8.738509417e-01    1.517264172e-04   -3.360118717e-05    0.000000000e+00    0.000000000e+00    0.000000000e+00    0.000000000e+00
       92509778   -5.387469530e-01   -8.602750301e-01    1.515764743e-04   -1.415330917e-05    0.000000000e+00    0.000000000e+00    0.000000000e+00    0.000000000e+00
       93759775   -5.620818734e-01   -8.461396694e-01    1.551667228e-04   -3.907084465e-05    0.000000000e+00    0.000000000e+00    0.000000000e+00    0.000000000e+00
       95009772   -5.845482945e-01   -8.314809799e-01    1.754043624e-04   -4.050880671e-05    0.000000000e+00    0.000000000e+00    0.000000000e+00    0.000000000e+00
       96259769   -6.060463786e-01   -8.162005544e-01    1.945300028e-04   -1.116190106e-05    0.000000000e+00    0.000000000e+00    0.000000000e+00    0.000000000e+00
       97509766   -6.277891397e-01   -8.005297184e-01    1.719193533e-04    7.081776857e-06    0.000000000e+00    0.000000000e+00    0.000000000e+00    0.000000000e+00
       98759763   -6.482045650e-01   -7.842773199e-01    1.448187977e-04   -1.521687955e-05    0.000000000e+00    0.000000000e+00    0.000000000e+00    0.000000000e+00
      100009760   -6.381252408e-01   -7.083102465e-01    1.610005274e-04   -4.398170859e-05    0.000000000e+00    0.000000000e+00    0.000000000e+00    0.000000000e+00
      101259757   -6.551773548e-01   -6.913326383e-01    1.947302371e-04   -6.169732660e-05    0.000000000e+00    0.000000000e+00    0.000000000e+00    0.000000000e+00
      102509754   -6.722682118e-01   -6.745881438e-01    1.702867448e-04   -3.641098738e-05    0.000000000e+00    0.000000000e+00    0.000000000e+00    0.000000000e+00
      103759751   -6.887215376e-01   -6.576499343e-01    1.903306693e-04   -6.708875299e-05    0.000000000e+00    0.000000000e+00    0.000000000e+00    0.000000000e+00
      105009748   -7.047838569e-01   -6.398993731e-01    1.843124628e-04   -9.370502084e-05    0.000000000e+00    0.000000000e+00    0.000000000e+00    0.000000000e+00
      106259745   -7.206299901e-01   -6.225298643e-01    1.578340307e-04   -9.711738676e-05    0.000000000e+00    0.000000000e+00    0.000000000e+00    0.000000000e+00
      107509742   -7.356554270e-01   -6.041111350e-01    1.626461744e-04   -1.306235790e-04    0.000000000e+00    0.000000000e+00    0.000000000e+00    0.000000000e+00
      108759739   -7.501275539e-01   -5.860195756e-01    2.036904916e-04   -7.322058082e-05    0.000000000e+00    0.000000000e+00    0.000000000e+00    0.000000000e+00
      110009736   -7.645480633e-01   -5.668396354e-01    1.667803153e-04   -8.463114500e-05    0.000000000e+00    0.000000000e+00    0.000000000e+00    0.000000000e+00
      111259733   -7.781397104e-01   -5.478023887e-01    1.613069326e-04   -8.926447481e-05    0.000000000e+00    0.000000000e+00    0.000000000e+00    0.000000000e+00
      112509730   -7.914847732e-01   -5.284665823e-01    1.731421798e-04   -8.156057447e-05    0.000000000e+00    0.000000000e+00    0.000000000e+00    0.000000000e+00
      113759727   -8.045561314e-01   -5.088658929e-01    1.576114446e-04   -1.034615561e-04    0.000000000e+00    0.000000000e+00    0.000000000e+00    0.000000000e+00
      115009724   -8.167838454e-01   -4.888155162e-01    1.478279009e-04   -1.143794507e-04    0.000000000e+00    0.000000000e+00    0.000000000e+00    0.000000000e+00
      116259721   -8.284642696e-01   -4.682401717e-01    1.655714586e-04   -1.138653606e-04    0.000000000e+00    0.000000000e+00    0.000000000e+00    0.000000000e+00
      117509718   -8.398849368e-01   -4.478530586e-01    1.591201872e-04   -1.021819189e-04    0.000000000e+00    0.000000000e+00    0.000000000e+00    0.000000000e+00
      118759715   -8.505862355e-01   -4.269870520e-01    1.439638436e-04   -1.084925607e-04    0.000000000e+00    0.000000000e+00    0.000000000e+00    0.000000000e+00
      120009712   -8.611195087e-01   -4.056673050e-01    1.476136968e-04   -1.371502876e-04    0.000000000e+00    0.000000000e+00    0.000000000e+00    0.000000000e+00
      121259709   -8.706780076e-01   -3.845292330e-01    1.600515097e-04   -1.258458942e-04    0.000000000e+00    0.000000000e+00    0.000000000e+00    0.000000000e+00
      122509706   -8.800470829e-01   -3.629980087e-01    1.701870933e-04   -1.507848501e-04    0.000000000e+00    0.000000000e+00    0.000000000e+00    0.000000000e+00
      123759703   -8.891233206e-01   -3.414387405e-01    1.817056909e-04   -1.515494660e-04    0.000000000e+00    0.000000000e+00    0.000000000e+00    0.000000000e+00
      125009700   -8.971900344e-01   -3.192815781e-01    1.199627295e-04   -1.524109393e-04    0.000000000e+00    0.000000000e+00    0.000000000e+00    0.000000000e+00
      126259697   -9.055811167e-01   -2.974619567e-01    1.718578860e-04   -1.803915948e-04    0.000000000e+00    0.000000000e+00    0.000000000e+00    0.000000000e+00
      127509694   -9.128379226e-01   -2.750394940e-01    1.635765657e-04   -1.211166382e-04    0.000000000e+00    0.000000000e+00    0.000000000e+00    0.000000000e+00
      128759691   -9.193664193e-01   -2.522844374e-01    1.913327724e-04   -1.872302964e-04    0.000000000e+00    0.000000000e+00    0.000000000e+00    0.000000000e+00
      130009688   -9.250889421e-01   -2.289377749e-01    1.408020034e-04   -1.989221200e-04    0.000000000e+00    0.000000000e+00    0.000000000e+00    0.000000000e+00
      131259685   -9.312316179e-01   -2.064100504e-01    1.373542473e-04   -1.966049895e-04    0.000000000e+00    0.000000000e+00    0.000000000e+00    0.000000000e+00
      132509682   -9.364823103e-01   -1.831652820e-01    1.579374075e-04   -1.556919888e-04    0.000000000e+00    0.000000000e+00    0.000000000e+00    0.000000000e+00
      133759679   -9.403049350e-01   -1.596969515e-01    1.736525446e-04   -1.628752798e-04    0.000000000e+00    0.000000000e+00    0.000000000e+00    0.000000000e+00
      135009676   -9.446475506e-01   -1.365388185e-01    1.313509420e-04   -1.680534333e-04    0.000000000e+00    0.000000000e+00    0.000000000e+00    0.000000000e+00
      136259673   -9.480961561e-01   -1.127420291e-01    1.243175939e-04   -1.554153860e-04    0.000000000e+00    0.000000000e+00    0.000000000e+00    0.000000000e+00
      137509670   -9.509806037e-01   -8.911468089e-02    9.868480265e-05   -2.033850178e-04    0.000000000e+00    0.000000000e+00    0.000000000e+00    0.000000000e+00
      138759667   -9.532614350e-01   -6.556895375e-02    1.378925517e-04   -1.994837075e-04    0.000000000e+00    0.000000000e+00    0.000000000e+00    0.000000000e+00
      140009664   -9.546469450e-01   -4.172421247e-02    1.539420336e-04   -2.114763483e-04    0.000000000e+00    0.000000000e+00    0.000000000e+00    0.000000000e+00
      141259661   -9.556177855e-01   -1.719968021e-02    1.220926642e-04   -1.832945272e-04    0.000000000e+00    0.000000000e+00    0.000000000e+00    0.000000000e+00
      142509658   -9.559721947e-01    6.366761401e-03    1.467401162e-04   -2.040779218e-04    0.000000000e+00    0.000000000e+00    0.000000000e+00    0.000000000e+00
      143759655   -9.556402564e-01    3.093461134e-02    1.367935911e-04   -2.282513306e-04    0.000000000e+00    0.000000000e+00    0.000000000e+00    0.000000000e+00
      145009652   -9.551223516e-01    5.470327288e-02    9.868200868e-05   -2.110144123e-04    0.000000000e+00    0.000000000e+00    0.000000000e+00    0.000000000e+00
