! NanoVNA-App
! Date: 2025-10-30 20:47:11
! Start: 10kHz Stop: 4GHz Points: 3201
! S-Parameter data: F S11 S21 S12 S22
# Hz S RI R 50
!     Frequency           S11_Real           S11_Imag           S21_Real           S21_Imag           S12_Real           S12_Imag           S22_Real           S22_Imag
          10000    1.001950026e+00   -3.871088848e-04    4.473142326e-06   -4.228204489e-06    0.000000000e+00    0.000000000e+00    0.000000000e+00    0.000000000e+00
        1259997    9.924242496e-01   -3.224631399e-02    1.777708530e-05    8.717179298e-06    0.000000000e+00    0.000000000e+00    0.000000000e+00    0.000000000e+00
        2509994    9.943161011e-01   -6.082349271e-02    8.575618267e-06    1.750234514e-05    0.000000000e+00    0.000000000e+00    0.000000000e+00    0.000000000e+00
        3759991    9.926451445e-01   -9.248138964e-02   -9.076669812e-06    4.262663424e-06    0.000000000e+00    0.000000000e+00    0.000000000e+00    0.000000000e+00
        5009988    9.887812734e-01   -1.234886348e-01    1.985207200e-05    3.466568887e-05    0.000000000e+00    0.000000000e+00    0.000000000e+00    0.000000000e+00
        6259985    9.833150506e-01   -1.533154398e-01   -1.091137528e-05   -3.033317626e-06    0.000000000e+00    0.000000000e+00    0.000000000e+00    0.000000000e+00
        7509982    9.773030877e-01   -1.831944585e-01   -8.332543075e-06    3.295671195e-05    0.000000000e+00    0.000000000e+00    0.000000000e+00    0.000000000e+00
        8759979    9.709808826e-01   -2.125700563e-01    1.384969801e-05    2.013146877e-05    0.000000000e+00    0.000000000e+00    0.000000000e+00    0.000000000e+00
       10009976    9.639676213e-01   -2.423224449e-01    1.554656774e-05    2.841092646e-05    0.000000000e+00    0.000000000e+00    0.000000000e+00    0.000000000e+00
       11259973    9.559625983e-01   -2.707648575e-01   -3.109779209e-05    8.556060493e-06    0.000000000e+00    0.000000000e+00    0.000000000e+00    0.000000000e+00
       12509970    9.473274350e-01   -2.996203601e-01    5.814246833e-06    2.908706665e-05    0.000000000e+00    0.000000000e+00    0.000000000e+00    0.000000000e+00
       13759967    9.380307198e-01   -3.282884061e-01    5.661044270e-05    2.842023969e-05    0.000000000e+00    0.000000000e+00    0.000000000e+00    0.000000000e+00
       15009964    9.270762801e-01   -3.559116721e-01   -1.080334187e-07   -2.442859113e-05    0.000000000e+00    0.000000000e+00    0.000000000e+00    0.000000000e+00
       16259961    9.161526561e-01   -3.833039999e-01    3.214087337e-05    4.197470844e-06    0.000000000e+00    0.000000000e+00    0.000000000e+00    0.000000000e+00
       17509958    9.039317369e-01   -4.110561907e-01   -1.485180110e-05    2.234429121e-05    0.000000000e+00    0.000000000e+00    0.000000000e+00    0.000000000e+00
       18759955    8.917826414e-01   -4.376146793e-01    9.089708328e-07   -7.504597306e-06    0.000000000e+00    0.000000000e+00    0.000000000e+00    0.000000000e+00
       20009952    8.778826594e-01   -4.640536606e-01   -1.555588096e-05   -1.310277730e-05    0.000000000e+00    0.000000000e+00    0.000000000e+00    0.000000000e+00
       21259949    8.635793924e-01   -4.904760122e-01    2.492219210e-06   -8.182600141e-06    0.000000000e+00    0.000000000e+00    0.000000000e+00    0.000000000e+00
       22509946    8.486145735e-01   -5.165801644e-01   -1.784227788e-05    1.230649650e-05    0.000000000e+00    0.000000000e+00    0.000000000e+00    0.000000000e+00
       23759943    8.332811594e-01   -5.412642956e-01    2.588145435e-05    3.764778376e-05    0.000000000e+00    0.000000000e+00    0.000000000e+00    0.000000000e+00
       25009940    8.168503642e-01   -5.656506419e-01    2.781301737e-05    1.768209040e-05    0.000000000e+00    0.000000000e+00    0.000000000e+00    0.000000000e+00
       26259937    7.996309400e-01   -5.899742246e-01    1.024454832e-07   -2.145674080e-05    0.000000000e+00    0.000000000e+00    0.000000000e+00    0.000000000e+00
       27509934    7.820608616e-01   -6.133689880e-01    2.614408731e-05    9.303912520e-07    0.000000000e+00    0.000000000e+00    0.000000000e+00    0.000000000e+00
       28759931    7.633389235e-01   -6.362934113e-01    7.458962500e-06   -3.013759851e-06    0.000000000e+00    0.000000000e+00    0.000000000e+00    0.000000000e+00
       30009928    7.447233200e-01   -6.590552926e-01    1.712422818e-05    5.039293319e-05    0.000000000e+00    0.000000000e+00    0.000000000e+00    0.000000000e+00
       31259925    7.247784138e-01   -6.800243258e-01   -3.038439900e-05    6.021000445e-06    0.000000000e+00    0.000000000e+00    0.000000000e+00    0.000000000e+00
       32509922    7.049492002e-01   -7.011495233e-01    5.787238479e-06    1.849979162e-05    0.000000000e+00    0.000000000e+00    0.000000000e+00    0.000000000e+00
       33759919    6.843304634e-01   -7.217839360e-01    3.466662019e-05    2.512987703e-05    0.000000000e+00    0.000000000e+00    0.000000000e+00    0.000000000e+00
       35009916    6.623784900e-01   -7.416357994e-01   -1.023430377e-05    1.543294638e-05    0.000000000e+00    0.000000000e+00    0.000000000e+00    0.000000000e+00
       36259913    6.406353116e-01   -7.611111403e-01    6.529502571e-06    2.763140947e-05    0.000000000e+00    0.000000000e+00    0.000000000e+00    0.000000000e+00
       37509910    6.182056069e-01   -7.801237106e-01   -1.890119165e-05    4.963018000e-05    0.000000000e+00    0.000000000e+00    0.000000000e+00    0.000000000e+00
       38759907    5.957998633e-01   -7.975662947e-01   -6.957910955e-06    3.762356937e-05    0.000000000e+00    0.000000000e+00    0.000000000e+00    0.000000000e+00
       40009904    5.727406144e-01   -8.145869374e-01    1.324433833e-05    3.603007644e-05    0.000000000e+00    0.000000000e+00    0.000000000e+00    0.000000000e+00
       41259901    5.487639308e-01   -8.309911489e-01   -3.429129720e-06    2.266746014e-05    0.000000000e+00    0.000000000e+00    0.000000000e+00    0.000000000e+00
       42509898    5.250409245e-01   -8.468419313e-01   -1.544319093e-05    5.197431892e-05    0.000000000e+00    0.000000000e+00    0.000000000e+00    0.000000000e+00
       43759895    5.009718537e-01   -8.616970181e-01   -5.852431059e-06    5.621369928e-05    0.000000000e+00    0.000000000e+00    0.000000000e+00    0.000000000e+00
       45009892    4.761008918e-01   -8.759531379e-01    3.224704415e-05    2.552196383e-05    0.000000000e+00    0.000000000e+00    0.000000000e+00    0.000000000e+00
       46259889    4.506295919e-01   -8.896496892e-01    1.878011972e-05    2.786144614e-05    0.000000000e+00    0.000000000e+00    0.000000000e+00    0.000000000e+00
       47509886    4.254813194e-01   -9.015421867e-01   -1.749116927e-05    5.231052637e-05    0.000000000e+00    0.000000000e+00    0.000000000e+00    0.000000000e+00
       48759883    4.000011384e-01   -9.136071801e-01    3.566965461e-05    6.035715342e-05    0.000000000e+00    0.000000000e+00    0.000000000e+00    0.000000000e+00
       50009880    3.742355406e-01   -9.251590371e-01    6.108451635e-05   -2.689473331e-05    0.000000000e+00    0.000000000e+00    0.000000000e+00    0.000000000e+00
       51259877    3.480583131e-01   -9.359326363e-01    1.373328269e-05    2.344977111e-05    0.000000000e+00    0.000000000e+00    0.000000000e+00    0.000000000e+00
       52509874    3.215158880e-01   -9.454259276e-01    5.147419870e-05    1.646392047e-05    0.000000000e+00    0.000000000e+00    0.000000000e+00    0.000000000e+00
       53759871    2.949508131e-01   -9.548930526e-01    6.493460387e-05    9.202398360e-06    0.000000000e+00    0.000000000e+00    0.000000000e+00    0.000000000e+00
       55009868    2.682796419e-01   -9.631935358e-01    3.558211029e-05    2.223532647e-05    0.000000000e+00    0.000000000e+00    0.000000000e+00    0.000000000e+00
       56259865    2.409415096e-01   -9.699499011e-01    2.777390182e-05    4.641711712e-05    0.000000000e+00    0.000000000e+00    0.000000000e+00    0.000000000e+00
       57509862    2.143680155e-01   -9.771379828e-01    5.522090942e-05    3.171153367e-06    0.000000000e+00    0.000000000e+00    0.000000000e+00    0.000000000e+00
       58759859    1.869311780e-01   -9.836074710e-01    6.199534982e-05   -5.074776709e-06    0.000000000e+00    0.000000000e+00    0.000000000e+00    0.000000000e+00
       60009856    1.597513109e-01   -9.882601500e-01    6.214622408e-05    1.387391239e-05    0.000000000e+00    0.000000000e+00    0.000000000e+00    0.000000000e+00
       61259853    1.320629865e-01   -9.930887222e-01    3.196299076e-05    1.741480082e-05    0.000000000e+00    0.000000000e+00    0.000000000e+00    0.000000000e+00
       62509850    1.050259620e-01   -9.969860911e-01    4.920829087e-05    1.051835716e-05    0.000000000e+00    0.000000000e+00    0.000000000e+00    0.000000000e+00
       63759847    7.730711251e-02   -9.997778535e-01    4.365108907e-05    1.008622348e-05    0.000000000e+00    0.000000000e+00    0.000000000e+00    0.000000000e+00
       65009844    4.952937737e-02   -1.001901627e+00    4.194397479e-05    3.483146429e-06    0.000000000e+00    0.000000000e+00    0.000000000e+00    0.000000000e+00
       66259841    2.216842398e-02   -1.003147721e+00    6.990320981e-05    2.178829163e-05    0.000000000e+00    0.000000000e+00    0.000000000e+00    0.000000000e+00
       67509838   -5.048428662e-03   -1.004867435e+00    4.135444760e-05   -1.425109804e-05    0.000000000e+00    0.000000000e+00    0.000000000e+00    0.000000000e+00
       68759835   -3.239976987e-02   -1.003992796e+00    7.015652955e-06    1.287646592e-05    0.000000000e+00    0.000000000e+00    0.000000000e+00    0.000000000e+00
       70009832   -5.981985480e-02   -1.003612638e+00    2.935901284e-05   -1.945439726e-05    0.000000000e+00    0.000000000e+00    0.000000000e+00    0.000000000e+00
       71259829   -8.686453104e-02   -1.002103209e+00    2.728495747e-05    3.385357559e-05    0.000000000e+00    0.000000000e+00    0.000000000e+00    0.000000000e+00
       72509826   -1.145231724e-01   -9.998852611e-01    4.919711500e-05    1.579523087e-05    0.000000000e+00    0.000000000e+00    0.000000000e+00    0.000000000e+00
       73759823   -1.417112350e-01   -9.966091514e-01    7.369276136e-05    2.931244671e-05    0.000000000e+00    0.000000000e+00    0.000000000e+00    0.000000000e+00
       75009820   -1.679736674e-01   -9.929147363e-01    7.451139390e-05    3.177672625e-06    0.000000000e+00    0.000000000e+00    0.000000000e+00    0.000000000e+00
       76259817   -1.946739703e-01   -9.885213375e-01    6.805080920e-05   -8.003786206e-06    0.000000000e+00    0.000000000e+00    0.000000000e+00    0.000000000e+00
       77509814   -2.217675894e-01   -9.839745164e-01    3.050733358e-05   -7.558614016e-06    0.000000000e+00    0.000000000e+00    0.000000000e+00    0.000000000e+00
       78759811   -2.472911179e-01   -9.777881503e-01    4.907511175e-05    5.259178579e-06    0.000000000e+00    0.000000000e+00    0.000000000e+00    0.000000000e+00
       80009808   -2.740516067e-01   -9.717260003e-01    7.199030370e-05    6.434135139e-05    0.000000000e+00    0.000000000e+00    0.000000000e+00    0.000000000e+00
       81259805   -2.994540334e-01   -9.644271731e-01    4.110857844e-05   -7.257796824e-06    0.000000000e+00    0.000000000e+00    0.000000000e+00    0.000000000e+00
       82509802   -3.253390789e-01   -9.565054774e-01    4.010833800e-05   -7.172115147e-06    0.000000000e+00    0.000000000e+00    0.000000000e+00    0.000000000e+00
       83759799   -3.505518436e-01   -9.484095573e-01    1.576263458e-05    6.084330380e-06    0.000000000e+00    0.000000000e+00    0.000000000e+00    0.000000000e+00
       85009796   -3.753559589e-01   -9.384366274e-01    5.885493010e-05   -3.091059625e-06    0.000000000e+00    0.000000000e+00    0.000000000e+00    0.000000000e+00
       86259793   -4.002955854e-01   -9.297037125e-01    6.662309170e-05    4.122685641e-05    0.000000000e+00    0.000000000e+00    0.000000000e+00    0.000000000e+00
       87509790   -4.247714877e-01   -9.191792607e-01    5.237571895e-05   -9.625218809e-06    0.000000000e+00    0.000000000e+00    0.000000000e+00    0.000000000e+00
       88759787   -4.488776326e-01   -9.081006050e-01    3.211665899e-05    9.323470294e-06    0.000000000e+00    0.000000000e+00    0.000000000e+00    0.000000000e+00
       90009784   -4.729033709e-01   -8.963217139e-01    9.109079838e-05    1.169275492e-05    0.000000000e+00    0.000000000e+00    0.000000000e+00    0.000000000e+00
       91259781   -4.959416986e-01   -8.843587041e-01    6.692390889e-05    1.787301153e-05    0.000000000e+00    0.000000000e+00    0.000000000e+00    0.000000000e+00
       92509778   -5.194957256e-01   -8.717852235e-01    7.409602404e-05    2.454407513e-05    0.000000000e+00    0.000000000e+00    0.000000000e+00    0.000000000e+00
       93759775   -5.413092375e-01   -8.578710556e-01    3.122910857e-05   -2.141110599e-06    0.000000000e+00    0.000000000e+00    0.000000000e+00    0.000000000e+00
       95009772   -5.635637045e-01   -8.443214297e-01    4.470534623e-05   -6.306916475e-06    0.000000000e+00    0.000000000e+00    0.000000000e+00    0.000000000e+00
       96259769   -5.856792331e-01   -8.298741579e-01    5.896762013e-05   -2.174358815e-05    0.000000000e+00    0.000000000e+00    0.000000000e+00    0.000000000e+00
       97509766   -6.073650718e-01   -8.146945834e-01    7.004011422e-05    2.351589501e-06    0.000000000e+00    0.000000000e+00    0.000000000e+00    0.000000000e+00
       98759763   -6.286826730e-01   -7.990601659e-01    7.117073983e-05   -2.669729292e-05    0.000000000e+00    0.000000000e+00    0.000000000e+00    0.000000000e+00
      100009760   -6.202186346e-01   -7.229843736e-01    1.005465165e-04   -5.816854537e-05    0.000000000e+00    0.000000000e+00    0.000000000e+00    0.000000000e+00
      101259757   -6.377673149e-01   -7.071539164e-01    5.951523781e-05   -2.412777394e-05    0.000000000e+00    0.000000000e+00    0.000000000e+00    0.000000000e+00
      102509754   -6.549277306e-01   -6.912223697e-01    6.068777293e-05   -3.986060619e-06    0.000000000e+00    0.000000000e+00    0.000000000e+00    0.000000000e+00
      103759751   -6.712492108e-01   -6.744093299e-01    1.163333654e-04   -1.768302172e-05    0.000000000e+00    0.000000000e+00    0.000000000e+00    0.000000000e+00
      105009748   -6.876612306e-01   -6.581259370e-01    6.849132478e-05    1.595355570e-06    0.000000000e+00    0.000000000e+00    0.000000000e+00    0.000000000e+00
      106259745   -7.035387158e-01   -6.411670446e-01    6.260909140e-05   -2.054963261e-05    0.000000000e+00    0.000000000e+00    0.000000000e+00    0.000000000e+00
      107509742   -7.185770869e-01   -6.235226393e-01    8.108653128e-05    2.806913108e-05    0.000000000e+00    0.000000000e+00    0.000000000e+00    0.000000000e+00
      108759739   -7.334993482e-01   -6.056973934e-01    6.448198110e-05   -1.771748066e-05    0.000000000e+00    0.000000000e+00    0.000000000e+00    0.000000000e+00
      110009736   -7.480564713e-01   -5.876746178e-01    8.413102478e-05    2.494081855e-05    0.000000000e+00    0.000000000e+00    0.000000000e+00    0.000000000e+00
      111259733   -7.617007494e-01   -5.689530373e-01    9.176600724e-05   -4.247203469e-05    0.000000000e+00    0.000000000e+00    0.000000000e+00    0.000000000e+00
      112509730   -7.754909396e-01   -5.506336689e-01    2.193544060e-05   -2.575758845e-05    0.000000000e+00    0.000000000e+00    0.000000000e+00    0.000000000e+00
      113759727   -7.888298035e-01   -5.315855742e-01    6.018765271e-05   -5.160178989e-05    0.000000000e+00    0.000000000e+00    0.000000000e+00    0.000000000e+00
      115009724   -8.013845682e-01   -5.124381185e-01    6.594322622e-05   -2.247188240e-05    0.000000000e+00    0.000000000e+00    0.000000000e+00    0.000000000e+00
      116259721   -8.135316372e-01   -4.925496578e-01    5.913898349e-05   -4.255492240e-05    0.000000000e+00    0.000000000e+00    0.000000000e+00    0.000000000e+00
      117509718   -8.251159787e-01   -4.727071524e-01    3.664102405e-05   -3.606639802e-05    0.000000000e+00    0.000000000e+00    0.000000000e+00    0.000000000e+00
      118759715   -8.360284567e-01   -4.531412125e-01    6.288196892e-05   -3.559701145e-05    0.000000000e+00    0.000000000e+00    0.000000000e+00    0.000000000e+00
      120009712   -8.469952345e-01   -4.322537780e-01    6.716977805e-05   -3.308150917e-05    0.000000000e+00    0.000000000e+00    0.000000000e+00    0.000000000e+00
      121259709   -8.576220274e-01   -4.119776785e-01    8.029304445e-05   -6.581190974e-05    0.000000000e+00    0.000000000e+00    0.000000000e+00    0.000000000e+00
      122509706   -8.668424487e-01   -3.908235133e-01    7.792748511e-05   -2.922676504e-05    0.000000000e+00    0.000000000e+00    0.000000000e+00    0.000000000e+00
      123759703   -8.765779734e-01   -3.698749542e-01    4.657637328e-05   -6.392784417e-05    0.000000000e+00    0.000000000e+00    0.000000000e+00    0.000000000e+00
      125009700   -8.853159547e-01   -3.488299847e-01    7.645692676e-05   -2.838205546e-05    0.000000000e+00    0.000000000e+00    0.000000000e+00    0.000000000e+00
      126259697   -8.941239715e-01   -3.275167346e-01    8.707586676e-05   -2.508331090e-05    0.000000000e+00    0.000000000e+00    0.000000000e+00    0.000000000e+00
      127509694   -9.014346600e-01   -3.059314489e-01    4.892330617e-05   -3.898050636e-05    0.000000000e+00    0.000000000e+00    0.000000000e+00    0.000000000e+00
      128759691   -9.083707929e-01   -2.837866545e-01    8.557364345e-05   -2.711359411e-05    0.000000000e+00    0.000000000e+00    0.000000000e+00    0.000000000e+00
      130009688   -9.151878357e-01   -2.615253031e-01    4.883389920e-05   -4.966557026e-05    0.000000000e+00    0.000000000e+00    0.000000000e+00    0.000000000e+00
      131259685   -9.220004082e-01   -2.396439910e-01    6.758235395e-05   -2.119317651e-05    0.000000000e+00    0.000000000e+00    0.000000000e+00    0.000000000e+00
      132509682   -9.278097153e-01   -2.174820155e-01    3.325659782e-05   -4.292745143e-05    0.000000000e+00    0.000000000e+00    0.000000000e+00    0.000000000e+00
      133759679   -9.324480891e-01   -1.944845468e-01    3.439560533e-05   -8.236803114e-05    0.000000000e+00    0.000000000e+00    0.000000000e+00    0.000000000e+00
      135009676   -9.377313256e-01   -1.720777154e-01    3.842264414e-05   -5.527492613e-05    0.000000000e+00    0.000000000e+00    0.000000000e+00    0.000000000e+00
      136259673   -9.419519901e-01   -1.493341923e-01    3.696978092e-05   -1.203790307e-04    0.000000000e+00    0.000000000e+00    0.000000000e+00    0.000000000e+00
      137509670   -9.453936219e-01   -1.260232031e-01    7.633399218e-05   -7.779989392e-05    0.000000000e+00    0.000000000e+00    0.000000000e+00    0.000000000e+00
      138759667   -9.480332732e-01   -1.030122787e-01    7.971189916e-05   -3.366544843e-05    0.000000000e+00    0.000000000e+00    0.000000000e+00    0.000000000e+00
      140009664   -9.506718516e-01   -7.993407547e-02    4.583876580e-05   -8.036848158e-05    0.000000000e+00    0.000000000e+00    0.000000000e+00    0.000000000e+00
      141259661   -9.523454309e-01   -5.671599507e-02    4.361011088e-05   -8.586514741e-05    0.000000000e+00    0.000000000e+00    0.000000000e+00    0.000000000e+00
      142509658   -9.537615776e-01   -3.321006149e-02    5.154870450e-05   -8.400902152e-05    0.000000000e+00    0.000000000e+00    0.000000000e+00    0.000000000e+00
      143759655   -9.551109672e-01   -9.807872586e-03    4.890840501e-05   -5.856528878e-05    0.000000000e+00    0.000000000e+00    0.000000000e+00    0.000000000e+00
      145009652   -9.547204375e-01    1.371740736e-02    5.993712693e-05   -6.133504212e-05    0.000000000e+00    0.000000000e+00    0.000000000e+00    0.000000000e+00
