! NanoVNA-App
! Date: 2025-10-30 19:12:52
! Start: 10kHz Stop: 4GHz Points: 3201
! S-Parameter data: F S11 S21 S12 S22
# Hz S RI R 50
!     Frequency           S11_Real           S11_Imag           S21_Real           S21_Imag           S12_Real           S12_Imag           S22_Real           S22_Imag
          10000    1.001981020e+00   -3.664810210e-04   -1.998618245e-06   -4.122965038e-06    0.000000000e+00    0.000000000e+00    0.000000000e+00    0.000000000e+00
        1259997    9.925883412e-01   -3.248801827e-02   -1.147855073e-05   -2.307817340e-06    0.000000000e+00    0.000000000e+00    0.000000000e+00    0.000000000e+00
        2509994    9.942862988e-01   -6.201975420e-02    1.412816346e-06   -1.651328057e-05    0.000000000e+00    0.000000000e+00    0.000000000e+00    0.000000000e+00
        3759991    9.920096993e-01   -9.337146580e-02    1.710839570e-06    2.606306225e-05    0.000000000e+00    0.000000000e+00    0.000000000e+00    0.000000000e+00
        5009988    9.884945750e-01   -1.251824945e-01    5.971919745e-05   -2.935528755e-06    0.000000000e+00    0.000000000e+00    0.000000000e+00    0.000000000e+00
        6259985    9.831147790e-01   -1.565826535e-01    6.953254342e-06    1.285411417e-05    0.000000000e+00    0.000000000e+00    0.000000000e+00    0.000000000e+00
        7509982    9.770521522e-01   -1.854906529e-01   -3.599561751e-05   -3.159977496e-05    0.000000000e+00    0.000000000e+00    0.000000000e+00    0.000000000e+00
        8759979    9.707092643e-01   -2.155580819e-01   -1.829210669e-05   -7.314607501e-06    0.000000000e+00    0.000000000e+00    0.000000000e+00    0.000000000e+00
       10009976    9.631674886e-01   -2.454538196e-01   -4.442408681e-07    3.370735794e-05    0.000000000e+00    0.000000000e+00    0.000000000e+00    0.000000000e+00
       11259973    9.553235769e-01   -2.747650743e-01    1.621805131e-05   -1.486390829e-05    0.000000000e+00    0.000000000e+00    0.000000000e+00    0.000000000e+00
       12509970    9.460793138e-01   -3.035592437e-01    1.970864832e-05   -1.537892967e-05    0.000000000e+00    0.000000000e+00    0.000000000e+00    0.000000000e+00
       13759967    9.366027117e-01   -3.328601718e-01   -1.869536936e-05    1.799315214e-05    0.000000000e+00    0.000000000e+00    0.000000000e+00    0.000000000e+00
       15009964    9.259992838e-01   -3.604049385e-01    4.142988473e-05    1.046434045e-05    0.000000000e+00    0.000000000e+00    0.000000000e+00    0.000000000e+00
       16259961    9.141296744e-01   -3.886487484e-01   -3.730878234e-06   -5.739741027e-06    0.000000000e+00    0.000000000e+00    0.000000000e+00    0.000000000e+00
       17509958    9.017741084e-01   -4.164012372e-01    2.323556691e-05   -9.090639651e-06    0.000000000e+00    0.000000000e+00    0.000000000e+00    0.000000000e+00
       18759955    8.890605569e-01   -4.440301359e-01    4.692934453e-06   -1.750420779e-05    0.000000000e+00    0.000000000e+00    0.000000000e+00    0.000000000e+00
       20009952    8.752250671e-01   -4.706213474e-01    1.981481910e-05    1.272186637e-05    0.000000000e+00    0.000000000e+00    0.000000000e+00    0.000000000e+00
       21259949    8.602823615e-01   -4.965853691e-01   -1.200288534e-05   -3.091990948e-05    0.000000000e+00    0.000000000e+00    0.000000000e+00    0.000000000e+00
       22509946    8.452868462e-01   -5.228266120e-01    1.140777022e-05    1.451652497e-05    0.000000000e+00    0.000000000e+00    0.000000000e+00    0.000000000e+00
       23759943    8.293552995e-01   -5.486907959e-01   -1.004897058e-06   -2.265907824e-06    0.000000000e+00    0.000000000e+00    0.000000000e+00    0.000000000e+00
       25009940    8.121184707e-01   -5.728452206e-01    4.929490387e-06    4.473887384e-05    0.000000000e+00    0.000000000e+00    0.000000000e+00    0.000000000e+00
       26259937    7.947806120e-01   -5.975342989e-01   -1.937150955e-06   -9.286217391e-06    0.000000000e+00    0.000000000e+00    0.000000000e+00    0.000000000e+00
       27509934    7.765676379e-01   -6.207866073e-01    3.286637366e-06    3.368221223e-05    0.000000000e+00    0.000000000e+00    0.000000000e+00    0.000000000e+00
       28759931    7.578085065e-01   -6.440288424e-01    7.010065019e-06    4.930421710e-05    0.000000000e+00    0.000000000e+00    0.000000000e+00    0.000000000e+00
       30009928    7.380182743e-01   -6.662504077e-01    3.494787961e-05    8.402392268e-06    0.000000000e+00    0.000000000e+00    0.000000000e+00    0.000000000e+00
       31259925    7.180436850e-01   -6.888994575e-01    3.056693822e-05    1.466833055e-06    0.000000000e+00    0.000000000e+00    0.000000000e+00    0.000000000e+00
       32509922    6.978165507e-01   -7.098477483e-01    4.644505680e-06    3.557093441e-05    0.000000000e+00    0.000000000e+00    0.000000000e+00    0.000000000e+00
       33759919    6.767958403e-01   -7.302017808e-01    2.779066563e-06    3.587454557e-06    0.000000000e+00    0.000000000e+00    0.000000000e+00    0.000000000e+00
       35009916    6.542118192e-01   -7.499430776e-01   -3.040768206e-05    1.643691212e-05    0.000000000e+00    0.000000000e+00    0.000000000e+00    0.000000000e+00
       36259913    6.324929595e-01   -7.696605921e-01    1.071393490e-05    1.354981214e-05    0.000000000e+00    0.000000000e+00    0.000000000e+00    0.000000000e+00
       37509910    6.090754271e-01   -7.881989479e-01    3.742612898e-05    7.562804967e-05    0.000000000e+00    0.000000000e+00    0.000000000e+00    0.000000000e+00
       38759907    5.859352350e-01   -8.062696457e-01    6.061047316e-06    3.380607814e-05    0.000000000e+00    0.000000000e+00    0.000000000e+00    0.000000000e+00
       40009904    5.619742870e-01   -8.228521943e-01    2.899579704e-05    2.683233470e-05    0.000000000e+00    0.000000000e+00    0.000000000e+00    0.000000000e+00
       41259901    5.376846194e-01   -8.392605782e-01    1.238938421e-05    2.171471715e-05    0.000000000e+00    0.000000000e+00    0.000000000e+00    0.000000000e+00
       42509898    5.135735869e-01   -8.548851609e-01    5.604699254e-06    2.772081643e-05    0.000000000e+00    0.000000000e+00    0.000000000e+00    0.000000000e+00
       43759895    4.883839786e-01   -8.697298765e-01    1.181103289e-05    4.840735346e-05    0.000000000e+00    0.000000000e+00    0.000000000e+00    0.000000000e+00
       45009892    4.632297158e-01   -8.837711811e-01    5.060154945e-05    3.759283572e-05    0.000000000e+00    0.000000000e+00    0.000000000e+00    0.000000000e+00
       46259889    4.376598299e-01   -8.969278932e-01    2.009235322e-05    3.150850534e-05    0.000000000e+00    0.000000000e+00    0.000000000e+00    0.000000000e+00
       47509886    4.117408991e-01   -9.097163081e-01    6.109476089e-07    2.166628838e-05    0.000000000e+00    0.000000000e+00    0.000000000e+00    0.000000000e+00
       48759883    3.857972622e-01   -9.215360284e-01    1.005642116e-05    4.358403385e-05    0.000000000e+00    0.000000000e+00    0.000000000e+00    0.000000000e+00
       50009880    3.589397073e-01   -9.333590269e-01    1.610442996e-05   -1.856125891e-06    0.000000000e+00    0.000000000e+00    0.000000000e+00    0.000000000e+00
       51259877    3.323760331e-01   -9.432674646e-01    3.321003169e-05    5.910173059e-05    0.000000000e+00    0.000000000e+00    0.000000000e+00    0.000000000e+00
       52509874    3.054875731e-01   -9.527816176e-01    2.540927380e-05    5.414243788e-05    0.000000000e+00    0.000000000e+00    0.000000000e+00    0.000000000e+00
       53759871    2.782821059e-01   -9.611526132e-01    4.011671990e-05    2.072658390e-05    0.000000000e+00    0.000000000e+00    0.000000000e+00    0.000000000e+00
       55009868    2.507168949e-01   -9.694384336e-01    4.609581083e-05    3.548618406e-05    0.000000000e+00    0.000000000e+00    0.000000000e+00    0.000000000e+00
       56259865    2.234498560e-01   -9.768155217e-01    2.929475158e-05    6.489548832e-05    0.000000000e+00    0.000000000e+00    0.000000000e+00    0.000000000e+00
       57509862    1.959518790e-01   -9.829186797e-01    3.277324140e-05    3.113783896e-05    0.000000000e+00    0.000000000e+00    0.000000000e+00    0.000000000e+00
       58759859    1.679172367e-01   -9.889890552e-01    9.157694876e-06    4.118960351e-05    0.000000000e+00    0.000000000e+00    0.000000000e+00    0.000000000e+00
       60009856    1.405972838e-01   -9.934859276e-01    8.537247777e-05   -5.383044481e-07    0.000000000e+00    0.000000000e+00    0.000000000e+00    0.000000000e+00
       61259853    1.118560284e-01   -9.975597262e-01    3.586523235e-06    2.352055162e-05    0.000000000e+00    0.000000000e+00    0.000000000e+00    0.000000000e+00
       62509850    8.439389616e-02   -1.000429511e+00    3.513041884e-05    3.507267684e-05    0.000000000e+00    0.000000000e+00    0.000000000e+00    0.000000000e+00
       63759847    5.626746267e-02   -1.002910495e+00    5.833897740e-05    3.967154771e-05    0.000000000e+00    0.000000000e+00    0.000000000e+00    0.000000000e+00
       65009844    2.815999649e-02   -1.005038142e+00    3.724545240e-05    1.050718129e-05    0.000000000e+00    0.000000000e+00    0.000000000e+00    0.000000000e+00
       66259841    4.398236051e-04   -1.006139994e+00    2.549961209e-05    1.227669418e-05    0.000000000e+00    0.000000000e+00    0.000000000e+00    0.000000000e+00
       67509838   -2.780189738e-02   -1.005438447e+00    5.723908544e-05    1.351349056e-06    0.000000000e+00    0.000000000e+00    0.000000000e+00    0.000000000e+00
       68759835   -5.499890074e-02   -1.005160689e+00    5.612056702e-05    6.766989827e-06    0.000000000e+00    0.000000000e+00    0.000000000e+00    0.000000000e+00
       70009832   -8.251897246e-02   -1.004128337e+00    9.079370648e-05    1.431722194e-05    0.000000000e+00    0.000000000e+00    0.000000000e+00    0.000000000e+00
       71259829   -1.105058938e-01   -1.002034903e+00    5.588214844e-05   -3.719702363e-06    0.000000000e+00    0.000000000e+00    0.000000000e+00    0.000000000e+00
       72509826   -1.378210187e-01   -9.986789227e-01    1.698173583e-05    4.811212420e-06    0.000000000e+00    0.000000000e+00    0.000000000e+00    0.000000000e+00
       73759823   -1.659123003e-01   -9.956343174e-01    6.795115769e-05   -2.766028047e-05    0.000000000e+00    0.000000000e+00    0.000000000e+00    0.000000000e+00
       75009820   -1.931279004e-01   -9.912398458e-01    5.856342614e-05    1.374073327e-05    0.000000000e+00    0.000000000e+00    0.000000000e+00    0.000000000e+00
       76259817   -2.199941725e-01   -9.857922196e-01    3.376789391e-05    9.248964489e-06    0.000000000e+00    0.000000000e+00    0.000000000e+00    0.000000000e+00
       77509814   -2.469819635e-01   -9.807860255e-01    8.542090654e-05    8.758157492e-06    0.000000000e+00    0.000000000e+00    0.000000000e+00    0.000000000e+00
       78759811   -2.735990584e-01   -9.739607573e-01    5.589053035e-05   -1.106411219e-05    0.000000000e+00    0.000000000e+00    0.000000000e+00    0.000000000e+00
       80009808   -2.999274135e-01   -9.662852287e-01    5.819927901e-05   -3.090593964e-05    0.000000000e+00    0.000000000e+00    0.000000000e+00    0.000000000e+00
       81259805   -3.260172307e-01   -9.588747025e-01    5.942489952e-05   -2.692174166e-05    0.000000000e+00    0.000000000e+00    0.000000000e+00    0.000000000e+00
       82509802   -3.518283665e-01   -9.501652122e-01    6.784126163e-05   -3.939494491e-06    0.000000000e+00    0.000000000e+00    0.000000000e+00    0.000000000e+00
       83759799   -3.774617016e-01   -9.410498142e-01    6.962846965e-05   -1.694075763e-06    0.000000000e+00    0.000000000e+00    0.000000000e+00    0.000000000e+00
       85009796   -4.021435380e-01   -9.307354093e-01    7.139891386e-05   -2.149492502e-06    0.000000000e+00    0.000000000e+00    0.000000000e+00    0.000000000e+00
       86259793   -4.266878366e-01   -9.201095104e-01    4.039984196e-05   -7.422640920e-06    0.000000000e+00    0.000000000e+00    0.000000000e+00    0.000000000e+00
       87509790   -4.518221915e-01   -9.090685844e-01    2.727471292e-05   -5.196779966e-06    0.000000000e+00    0.000000000e+00    0.000000000e+00    0.000000000e+00
       88759787   -4.762833118e-01   -8.973667622e-01    8.033029735e-05   -2.488307655e-05    0.000000000e+00    0.000000000e+00    0.000000000e+00    0.000000000e+00
       90009784   -5.003951788e-01   -8.849978447e-01    2.373475581e-05   -9.683892131e-06    0.000000000e+00    0.000000000e+00    0.000000000e+00    0.000000000e+00
       91259781   -5.239255428e-01   -8.716486096e-01    7.122009993e-05   -2.023298293e-05    0.000000000e+00    0.000000000e+00    0.000000000e+00    0.000000000e+00
       92509778   -5.467811823e-01   -8.581644297e-01    8.994434029e-05    1.740828156e-05    0.000000000e+00    0.000000000e+00    0.000000000e+00    0.000000000e+00
       93759775   -5.694246888e-01   -8.442283869e-01    5.961768329e-05   -2.804305404e-05    0.000000000e+00    0.000000000e+00    0.000000000e+00    0.000000000e+00
       95009772   -5.914272070e-01   -8.291522264e-01    1.019584015e-04   -9.305775166e-06    0.000000000e+00    0.000000000e+00    0.000000000e+00    0.000000000e+00
       96259769   -6.130844355e-01   -8.141415715e-01    4.410557449e-05    5.764886737e-07    0.000000000e+00    0.000000000e+00    0.000000000e+00    0.000000000e+00
       97509766   -6.348353028e-01   -7.977855802e-01    7.894914597e-05   -3.091339022e-05    0.000000000e+00    0.000000000e+00    0.000000000e+00    0.000000000e+00
       98759763   -6.556348801e-01   -7.814031243e-01    9.783264250e-05   -5.240179598e-05    0.000000000e+00    0.000000000e+00    0.000000000e+00    0.000000000e+00
      100009760   -6.445499063e-01   -7.049249411e-01    8.103251457e-05   -1.961365342e-06    0.000000000e+00    0.000000000e+00    0.000000000e+00    0.000000000e+00
      101259757   -6.614701152e-01   -6.878845692e-01    5.142763257e-05   -6.142165512e-05    0.000000000e+00    0.000000000e+00    0.000000000e+00    0.000000000e+00
      102509754   -6.783883572e-01   -6.704223752e-01    7.005129009e-05   -4.099495709e-05    0.000000000e+00    0.000000000e+00    0.000000000e+00    0.000000000e+00
      103759751   -6.947452426e-01   -6.537605524e-01    4.453770816e-05   -1.175049692e-05    0.000000000e+00    0.000000000e+00    0.000000000e+00    0.000000000e+00
      105009748   -7.107467055e-01   -6.362615824e-01    6.450340152e-05   -3.266707063e-05    0.000000000e+00    0.000000000e+00    0.000000000e+00    0.000000000e+00
      106259745   -7.262127399e-01   -6.178873777e-01    5.934201181e-05   -8.928589523e-06    0.000000000e+00    0.000000000e+00    0.000000000e+00    0.000000000e+00
      107509742   -7.412763834e-01   -5.997703075e-01    4.129204899e-05   -2.161134034e-05    0.000000000e+00    0.000000000e+00    0.000000000e+00    0.000000000e+00
      108759739   -7.556922436e-01   -5.812506080e-01    5.814526230e-05   -5.528517067e-05    0.000000000e+00    0.000000000e+00    0.000000000e+00    0.000000000e+00
      110009736   -7.701618671e-01   -5.625388622e-01    7.287506014e-05   -2.237223089e-05    0.000000000e+00    0.000000000e+00    0.000000000e+00    0.000000000e+00
      111259733   -7.832917571e-01   -5.429059267e-01    7.055792958e-05    7.152557373e-06    0.000000000e+00    0.000000000e+00    0.000000000e+00    0.000000000e+00
      112509730   -7.968838811e-01   -5.239290595e-01    3.241281956e-05   -5.127303302e-05    0.000000000e+00    0.000000000e+00    0.000000000e+00    0.000000000e+00
      113759727   -8.095083833e-01   -5.038280487e-01    6.291549653e-05   -5.650985986e-05    0.000000000e+00    0.000000000e+00    0.000000000e+00    0.000000000e+00
      115009724   -8.215528727e-01   -4.836350679e-01    7.085036486e-05   -5.199573934e-05    0.000000000e+00    0.000000000e+00    0.000000000e+00    0.000000000e+00
      116259721   -8.329899907e-01   -4.630808532e-01    6.020814180e-05   -2.135522664e-05    0.000000000e+00    0.000000000e+00    0.000000000e+00    0.000000000e+00
      117509718   -8.449674845e-01   -4.430496395e-01    6.048195064e-05   -3.464147449e-05    0.000000000e+00    0.000000000e+00    0.000000000e+00    0.000000000e+00
      118759715   -8.553540111e-01   -4.219449162e-01    5.659926683e-05   -1.708418131e-05    0.000000000e+00    0.000000000e+00    0.000000000e+00    0.000000000e+00
      120009712   -8.652446270e-01   -4.005236626e-01    5.722884089e-05   -5.098991096e-05    0.000000000e+00    0.000000000e+00    0.000000000e+00    0.000000000e+00
      121259709   -8.754754663e-01   -3.793533444e-01    4.967395216e-05   -3.530643880e-05    0.000000000e+00    0.000000000e+00    0.000000000e+00    0.000000000e+00
      122509706   -8.847393990e-01   -3.577548265e-01    5.766842514e-05   -5.961395800e-05    0.000000000e+00    0.000000000e+00    0.000000000e+00    0.000000000e+00
      123759703   -8.933336139e-01   -3.361583948e-01    5.473010242e-05   -5.303975195e-05    0.000000000e+00    0.000000000e+00    0.000000000e+00    0.000000000e+00
      125009700   -9.016642570e-01   -3.142333329e-01    5.860254169e-05   -5.005951971e-05    0.000000000e+00    0.000000000e+00    0.000000000e+00    0.000000000e+00
      126259697   -9.088681340e-01   -2.915653884e-01    6.549153477e-05   -3.655720502e-05    0.000000000e+00    0.000000000e+00    0.000000000e+00    0.000000000e+00
      127509694   -9.164115787e-01   -2.690036297e-01    8.769799024e-05   -3.287568688e-05    0.000000000e+00    0.000000000e+00    0.000000000e+00    0.000000000e+00
      128759691   -9.222852588e-01   -2.462025285e-01    6.108544767e-05   -5.429051816e-05    0.000000000e+00    0.000000000e+00    0.000000000e+00    0.000000000e+00
      130009688   -9.291466475e-01   -2.240104675e-01    8.093658835e-05   -3.429874778e-05    0.000000000e+00    0.000000000e+00    0.000000000e+00    0.000000000e+00
      131259685   -9.337714911e-01   -2.002927065e-01    5.949847400e-05   -4.849582911e-05    0.000000000e+00    0.000000000e+00    0.000000000e+00    0.000000000e+00
      132509682   -9.392644167e-01   -1.777193248e-01    6.679445505e-05   -6.661657244e-05    0.000000000e+00    0.000000000e+00    0.000000000e+00    0.000000000e+00
      133759679   -9.435658455e-01   -1.540782601e-01    3.191828728e-05   -6.649177521e-05    0.000000000e+00    0.000000000e+00    0.000000000e+00    0.000000000e+00
      135009676   -9.471399188e-01   -1.304963082e-01    5.502812564e-05   -4.138797522e-05    0.000000000e+00    0.000000000e+00    0.000000000e+00    0.000000000e+00
      136259673   -9.508991838e-01   -1.074981540e-01    4.529394209e-05   -1.023020595e-04    0.000000000e+00    0.000000000e+00    0.000000000e+00    0.000000000e+00
      137509670   -9.533317089e-01   -8.343076706e-02    3.487709910e-05   -8.053984493e-05    0.000000000e+00    0.000000000e+00    0.000000000e+00    0.000000000e+00
      138759667   -9.552949071e-01   -5.963785946e-02    4.746951163e-05   -1.126835123e-04    0.000000000e+00    0.000000000e+00    0.000000000e+00    0.000000000e+00
      140009664   -9.569222331e-01   -3.611898795e-02    5.673989654e-05   -7.367320359e-05    0.000000000e+00    0.000000000e+00    0.000000000e+00    0.000000000e+00
      141259661   -9.577102661e-01   -1.156021561e-02    4.766788334e-05   -5.824118853e-05    0.000000000e+00    0.000000000e+00    0.000000000e+00    0.000000000e+00
      142509658   -9.580279589e-01    1.213941909e-02    3.674067557e-05   -7.374491543e-05    0.000000000e+00    0.000000000e+00    0.000000000e+00    0.000000000e+00
      143759655   -9.582509995e-01    3.606602177e-02    4.229880869e-05   -7.508229464e-05    0.000000000e+00    0.000000000e+00    0.000000000e+00    0.000000000e+00
      145009652   -9.567813873e-01    6.042854488e-02    2.825446427e-05   -5.660764873e-05    0.000000000e+00    0.000000000e+00    0.000000000e+00    0.000000000e+00
