! NanoVNA-App
! Date: 2025-10-01 20:10:30
! Start: 10kHz Stop: 6GHz Points: 1024
! S-Parameter data: F S11 S21 S12 S22
# Hz S RI R 50
!     Frequency           S11_Real           S11_Imag           S21_Real           S21_Imag           S12_Real           S12_Imag           S22_Real           S22_Imag
          10000    1.004147768e+00   -5.930811167e-04   -1.060776412e-06    3.797002137e-06    0.000000000e+00    0.000000000e+00    0.000000000e+00    0.000000000e+00
        5875093    9.867568612e-01   -1.395266354e-01    2.539716661e-06    2.778787166e-05    0.000000000e+00    0.000000000e+00    0.000000000e+00    0.000000000e+00
       11740186    9.564208984e-01   -2.749154866e-01    2.199783921e-05    4.031322896e-05    0.000000000e+00    0.000000000e+00    0.000000000e+00    0.000000000e+00
       17605279    9.088914990e-01   -4.038470984e-01    8.559785783e-06    3.674067557e-06    0.000000000e+00    0.000000000e+00    0.000000000e+00    0.000000000e+00
       23470371    8.459536433e-01   -5.240216851e-01    2.856831998e-05    1.002568752e-05    0.000000000e+00    0.000000000e+00    0.000000000e+00    0.000000000e+00
       29335464    7.673873305e-01   -6.345427036e-01    1.118239015e-05   -4.538334906e-06    0.000000000e+00    0.000000000e+00    0.000000000e+00    0.000000000e+00
       35200557    6.756842732e-01   -7.328051925e-01   -1.555029303e-05    3.752391785e-05    0.000000000e+00    0.000000000e+00    0.000000000e+00    0.000000000e+00
       41065650    5.726864934e-01   -8.175283074e-01    2.041459084e-05    6.719864905e-05    0.000000000e+00    0.000000000e+00    0.000000000e+00    0.000000000e+00
       46930743    4.603776038e-01   -8.871768713e-01    4.273932427e-05    6.163492799e-05    0.000000000e+00    0.000000000e+00    0.000000000e+00    0.000000000e+00
       52795836    3.417612910e-01   -9.403290153e-01    9.567476809e-06    3.904290497e-05    0.000000000e+00    0.000000000e+00    0.000000000e+00    0.000000000e+00
       58660929    2.176911682e-01   -9.784152508e-01    3.867782652e-05    1.156143844e-05    0.000000000e+00    0.000000000e+00    0.000000000e+00    0.000000000e+00
       64526022    9.114112705e-02   -9.999769926e-01    7.478799671e-05    1.567415893e-05    0.000000000e+00    0.000000000e+00    0.000000000e+00    0.000000000e+00
       70391114   -3.626719117e-02   -1.006296754e+00    3.892090172e-05    7.991679013e-06    0.000000000e+00    0.000000000e+00    0.000000000e+00    0.000000000e+00
       76256207   -1.621293575e-01   -9.952589273e-01    2.482347190e-05   -8.988194168e-06    0.000000000e+00    0.000000000e+00    0.000000000e+00    0.000000000e+00
       82121300   -2.847148478e-01   -9.702022672e-01    9.645335376e-05   -2.926494926e-05    0.000000000e+00    0.000000000e+00    0.000000000e+00    0.000000000e+00
       87986393   -4.019804001e-01   -9.304061532e-01    4.743319005e-05    2.748239785e-05    0.000000000e+00    0.000000000e+00    0.000000000e+00    0.000000000e+00
       93851486   -5.130553842e-01   -8.763864636e-01    4.191882908e-05   -1.391302794e-05    0.000000000e+00    0.000000000e+00    0.000000000e+00    0.000000000e+00
       99716579   -6.158828139e-01   -8.101501465e-01    5.893781781e-05    8.426606655e-06    0.000000000e+00    0.000000000e+00    0.000000000e+00    0.000000000e+00
      105581672   -6.731499434e-01   -6.757789254e-01    5.717296153e-05   -8.344650269e-06    0.000000000e+00    0.000000000e+00    0.000000000e+00    0.000000000e+00
      111446764   -7.452946305e-01   -5.937651396e-01    6.019975990e-05   -2.264790237e-05    0.000000000e+00    0.000000000e+00    0.000000000e+00    0.000000000e+00
      117311857   -8.075121641e-01   -5.058982372e-01    4.472956061e-05   -4.130415618e-06    0.000000000e+00    0.000000000e+00    0.000000000e+00    0.000000000e+00
      123176950   -8.599971533e-01   -4.113995135e-01    7.919128984e-05   -9.353272617e-06    0.000000000e+00    0.000000000e+00    0.000000000e+00    0.000000000e+00
      129042043   -9.011362195e-01   -3.108722866e-01    5.765724927e-05   -7.020868361e-05    0.000000000e+00    0.000000000e+00    0.000000000e+00    0.000000000e+00
      134907136   -9.313563704e-01   -2.065762281e-01    5.349796265e-05   -3.747176379e-05    0.000000000e+00    0.000000000e+00    0.000000000e+00    0.000000000e+00
      140772229   -9.499147534e-01   -9.826343507e-02    4.737637937e-05   -5.192216486e-05    0.000000000e+00    0.000000000e+00    0.000000000e+00    0.000000000e+00
      146637322   -9.558604956e-01    1.185431518e-02    6.105471402e-05   -5.499832332e-05    0.000000000e+00    0.000000000e+00    0.000000000e+00    0.000000000e+00
      152502414   -9.488914609e-01    1.231341437e-01    2.753734589e-05   -6.657373160e-05    0.000000000e+00    0.000000000e+00    0.000000000e+00    0.000000000e+00
      158367507   -9.294096231e-01    2.342948318e-01    9.720213711e-06   -5.263369530e-05    0.000000000e+00    0.000000000e+00    0.000000000e+00    0.000000000e+00
      164232600   -8.942549825e-01    3.440889120e-01    4.126504064e-05   -1.168819144e-04    0.000000000e+00    0.000000000e+00    0.000000000e+00    0.000000000e+00
      170097693   -8.465869427e-01    4.504307508e-01    1.819897443e-05   -7.750559598e-05    0.000000000e+00    0.000000000e+00    0.000000000e+00    0.000000000e+00
      175962786   -7.846551538e-01    5.514379740e-01   -3.275275230e-05   -5.493499339e-05    0.000000000e+00    0.000000000e+00    0.000000000e+00    0.000000000e+00
      181827879   -7.092291713e-01    6.449572444e-01    1.358427107e-05   -9.107310325e-05    0.000000000e+00    0.000000000e+00    0.000000000e+00    0.000000000e+00
      187692972   -6.204647422e-01    7.298281789e-01   -7.041729987e-06   -6.383191794e-05    0.000000000e+00    0.000000000e+00    0.000000000e+00    0.000000000e+00
      193558065   -5.195108652e-01    8.025549054e-01    1.592282206e-05   -1.336988062e-04    0.000000000e+00    0.000000000e+00    0.000000000e+00    0.000000000e+00
      199423157   -4.083964229e-01    8.619160652e-01   -3.592949361e-05   -8.356664330e-05    0.000000000e+00    0.000000000e+00    0.000000000e+00    0.000000000e+00
      205288250   -2.883218229e-01    9.059470892e-01   -7.781758904e-05   -1.215841621e-04    0.000000000e+00    0.000000000e+00    0.000000000e+00    0.000000000e+00
      211153343   -1.620279700e-01    9.330834150e-01   -7.580313832e-05   -9.987037629e-05    0.000000000e+00    0.000000000e+00    0.000000000e+00    0.000000000e+00
      217018436   -3.152218461e-02    9.415648580e-01   -7.424131036e-05   -9.767990559e-05    0.000000000e+00    0.000000000e+00    0.000000000e+00    0.000000000e+00
      222883529    9.943775833e-02    9.319901466e-01   -8.765235543e-05   -8.900742978e-05    0.000000000e+00    0.000000000e+00    0.000000000e+00    0.000000000e+00
      228748622    2.287049294e-01    9.027442336e-01   -1.264121383e-04   -4.448182881e-05    0.000000000e+00    0.000000000e+00    0.000000000e+00    0.000000000e+00
      234613715    3.520063758e-01    8.559348583e-01   -1.093316823e-04   -8.542556316e-05    0.000000000e+00    0.000000000e+00    0.000000000e+00    0.000000000e+00
      240478807    4.675768018e-01    7.912499905e-01   -1.132916659e-04   -4.166550934e-05    0.000000000e+00    0.000000000e+00    0.000000000e+00    0.000000000e+00
      246343900    5.722337961e-01    7.119013071e-01   -1.413337886e-04   -3.613252193e-05    0.000000000e+00    0.000000000e+00    0.000000000e+00    0.000000000e+00
      252208993    6.633617878e-01    6.184325218e-01   -1.281211153e-04   -1.424271613e-05    0.000000000e+00    0.000000000e+00    0.000000000e+00    0.000000000e+00
      258074086    7.403235435e-01    5.134499669e-01   -1.712245867e-04   -2.061855048e-05    0.000000000e+00    0.000000000e+00    0.000000000e+00    0.000000000e+00
      263939179    8.006789684e-01    4.007330835e-01   -1.393202692e-04    8.618459105e-06    0.000000000e+00    0.000000000e+00    0.000000000e+00    0.000000000e+00
      269804272    8.448922038e-01    2.824316919e-01   -1.543536782e-04    3.155786544e-05    0.000000000e+00    0.000000000e+00    0.000000000e+00    0.000000000e+00
      275669365    8.723152280e-01    1.601826996e-01   -1.275632530e-04    2.772174776e-05    0.000000000e+00    0.000000000e+00    0.000000000e+00    0.000000000e+00
      281534457    8.829098344e-01    3.792262822e-02   -1.387223601e-04    3.585033119e-05    0.000000000e+00    0.000000000e+00    0.000000000e+00    0.000000000e+00
      287399550    8.774241805e-01   -8.298621327e-02   -1.396192238e-04    9.529665112e-05    0.000000000e+00    0.000000000e+00    0.000000000e+00    0.000000000e+00
      293264643    8.564671278e-01   -2.004385591e-01   -1.364555210e-04    8.789636195e-05    0.000000000e+00    0.000000000e+00    0.000000000e+00    0.000000000e+00
      299129736    8.221650720e-01   -3.123093545e-01   -9.759049863e-05    1.258561388e-04    0.000000000e+00    0.000000000e+00    0.000000000e+00    0.000000000e+00
      304994829    7.751825452e-01   -4.180184901e-01   -1.281714067e-04    1.283157617e-04    0.000000000e+00    0.000000000e+00    0.000000000e+00    0.000000000e+00
      310859922    7.157260776e-01   -5.156538486e-01   -1.340387389e-04    1.157494262e-04    0.000000000e+00    0.000000000e+00    0.000000000e+00    0.000000000e+00
      316725015    6.474161148e-01   -6.037995815e-01   -7.244944572e-05    1.786937937e-04    0.000000000e+00    0.000000000e+00    0.000000000e+00    0.000000000e+00
      322590108    5.693222284e-01   -6.820612550e-01   -1.128436998e-04    1.691021025e-04    0.000000000e+00    0.000000000e+00    0.000000000e+00    0.000000000e+00
      328455200    4.838094115e-01   -7.512518167e-01   -4.610512406e-05    1.677423716e-04    0.000000000e+00    0.000000000e+00    0.000000000e+00    0.000000000e+00
      334320293    3.922382593e-01   -8.087902069e-01   -4.660524428e-05    2.129347995e-04    0.000000000e+00    0.000000000e+00    0.000000000e+00    0.000000000e+00
      340185386    2.931153476e-01   -8.555131555e-01    1.184456050e-05    2.414900810e-04    0.000000000e+00    0.000000000e+00    0.000000000e+00    0.000000000e+00
      346050479    1.917637736e-01   -8.905801177e-01   -2.366118133e-05    2.218633890e-04    0.000000000e+00    0.000000000e+00    0.000000000e+00    0.000000000e+00
      351915572    8.726998419e-02   -9.131460786e-01    5.035009235e-05    1.873532310e-04    0.000000000e+00    0.000000000e+00    0.000000000e+00    0.000000000e+00
      357780665   -1.891168766e-02   -9.247472286e-01    5.182903260e-05    1.976462081e-04    0.000000000e+00    0.000000000e+00    0.000000000e+00    0.000000000e+00
      363645758   -1.257060021e-01   -9.227349758e-01    6.170291454e-05    2.193376422e-04    0.000000000e+00    0.000000000e+00    0.000000000e+00    0.000000000e+00
      369510850   -2.330452502e-01   -9.095711708e-01    6.556697190e-05    1.759305596e-04    0.000000000e+00    0.000000000e+00    0.000000000e+00    0.000000000e+00
      375375943   -3.363029957e-01   -8.849471807e-01    1.094508916e-04    2.332814038e-04    0.000000000e+00    0.000000000e+00    0.000000000e+00    0.000000000e+00
      381241036   -4.384158850e-01   -8.464126587e-01    1.290487126e-04    2.335198224e-04    0.000000000e+00    0.000000000e+00    0.000000000e+00    0.000000000e+00
      387106129   -5.359734297e-01   -7.961357832e-01    1.448048279e-04    1.564947888e-04    0.000000000e+00    0.000000000e+00    0.000000000e+00    0.000000000e+00
      392971222   -6.269731522e-01   -7.336742282e-01    1.634676009e-04    1.518148929e-04    0.000000000e+00    0.000000000e+00    0.000000000e+00    0.000000000e+00
      398836315   -7.117764354e-01   -6.620328426e-01    2.208389342e-04    1.489985734e-04    0.000000000e+00    0.000000000e+00    0.000000000e+00    0.000000000e+00
      404701408   -7.874444127e-01   -5.769127011e-01    2.093696967e-04    1.123165712e-04    0.000000000e+00    0.000000000e+00    0.000000000e+00    0.000000000e+00
      410566500   -8.518423438e-01   -4.844126701e-01    2.130977809e-04    1.202113926e-04    0.000000000e+00    0.000000000e+00    0.000000000e+00    0.000000000e+00
      416431593   -9.058872461e-01   -3.816515803e-01    2.549709752e-04    8.582603186e-05    0.000000000e+00    0.000000000e+00    0.000000000e+00    0.000000000e+00
      422296686   -9.453719854e-01   -2.718234658e-01    2.301977947e-04    6.700307131e-05    0.000000000e+00    0.000000000e+00    0.000000000e+00    0.000000000e+00
      428161779   -9.712131023e-01   -1.568593681e-01    2.919426188e-04   -2.520624548e-05    0.000000000e+00    0.000000000e+00    0.000000000e+00    0.000000000e+00
      434026872   -9.816491008e-01   -3.824499995e-02    2.683214843e-04   -1.435726881e-05    0.000000000e+00    0.000000000e+00    0.000000000e+00    0.000000000e+00
      439891965   -9.755337238e-01    8.230859041e-02    2.559106797e-04   -6.088614464e-05    0.000000000e+00    0.000000000e+00    0.000000000e+00    0.000000000e+00
      445757058   -9.532883167e-01    2.012269646e-01    3.086281940e-04   -8.268840611e-05    0.000000000e+00    0.000000000e+00    0.000000000e+00    0.000000000e+00
      451622151   -9.147185087e-01    3.170051575e-01    2.549802884e-04   -7.122475654e-05    0.000000000e+00    0.000000000e+00    0.000000000e+00    0.000000000e+00
      457487243   -8.603011370e-01    4.276877940e-01    2.774801105e-04   -1.151347533e-04    0.000000000e+00    0.000000000e+00    0.000000000e+00    0.000000000e+00
      463352336   -7.914843559e-01    5.287201405e-01    2.393973991e-04   -1.629842445e-04    0.000000000e+00    0.000000000e+00    0.000000000e+00    0.000000000e+00
      469217429   -7.076746225e-01    6.207308173e-01    1.913709566e-04   -1.674899831e-04    0.000000000e+00    0.000000000e+00    0.000000000e+00    0.000000000e+00
      475082522   -6.127165556e-01    6.996227503e-01    2.256194130e-04   -2.010241151e-04    0.000000000e+00    0.000000000e+00    0.000000000e+00    0.000000000e+00
      480947615   -5.083470345e-01    7.642058730e-01    1.906473190e-04   -2.389075235e-04    0.000000000e+00    0.000000000e+00    0.000000000e+00    0.000000000e+00
      486812708   -3.954583704e-01    8.134354353e-01    1.575686038e-04   -2.456232905e-04    0.000000000e+00    0.000000000e+00    0.000000000e+00    0.000000000e+00
      492677801   -2.787539363e-01    8.464154601e-01    1.404657960e-04   -2.553639933e-04    0.000000000e+00    0.000000000e+00    0.000000000e+00    0.000000000e+00
      498542893   -1.586392224e-01    8.632721901e-01    1.475578174e-04   -2.646688372e-04    0.000000000e+00    0.000000000e+00    0.000000000e+00    0.000000000e+00
      504407986   -3.806789219e-02    8.631951213e-01    7.630698383e-05   -2.260291949e-04    0.000000000e+00    0.000000000e+00    0.000000000e+00    0.000000000e+00
      510273079    7.968685031e-02    8.471911550e-01    5.323719233e-05   -3.231577575e-04    0.000000000e+00    0.000000000e+00    0.000000000e+00    0.000000000e+00
      516138172    1.922719628e-01    8.167231679e-01   -1.017376781e-05   -3.226520494e-04    0.000000000e+00    0.000000000e+00    0.000000000e+00    0.000000000e+00
      522003265    3.001873195e-01    7.713928223e-01   -3.025215119e-05   -3.016609699e-04    0.000000000e+00    0.000000000e+00    0.000000000e+00    0.000000000e+00
      527868358    3.995979726e-01    7.133973837e-01   -2.510845661e-05   -3.277091309e-04    0.000000000e+00    0.000000000e+00    0.000000000e+00    0.000000000e+00
      533733451    4.891215563e-01    6.450371742e-01   -4.975777119e-05   -2.740239725e-04    0.000000000e+00    0.000000000e+00    0.000000000e+00    0.000000000e+00
      539598543    5.690989494e-01    5.655245781e-01   -1.516751945e-04   -3.092363477e-04    0.000000000e+00    0.000000000e+00    0.000000000e+00    0.000000000e+00
      545463636    6.376422644e-01    4.787184894e-01   -1.903558150e-04   -3.389706835e-04    0.000000000e+00    0.000000000e+00    0.000000000e+00    0.000000000e+00
      551328729    6.947613358e-01    3.848280311e-01   -1.886617392e-04   -2.818452194e-04    0.000000000e+00    0.000000000e+00    0.000000000e+00    0.000000000e+00
      557193822    7.389611602e-01    2.857417762e-01   -2.247020602e-04   -3.007324412e-04    0.000000000e+00    0.000000000e+00    0.000000000e+00    0.000000000e+00
      563058915    7.705433965e-01    1.829520613e-01   -2.263579518e-04   -2.216305584e-04    0.000000000e+00    0.000000000e+00    0.000000000e+00    0.000000000e+00
      568924008    7.902046442e-01    7.766570896e-02   -2.881735563e-04   -2.526724711e-04    0.000000000e+00    0.000000000e+00    0.000000000e+00    0.000000000e+00
      574789101    7.975799441e-01   -2.781407163e-02   -3.115981817e-04   -1.739701256e-04    0.000000000e+00    0.000000000e+00    0.000000000e+00    0.000000000e+00
      580654194    7.917760015e-01   -1.334795505e-01   -3.230152652e-04   -1.765871421e-04    0.000000000e+00    0.000000000e+00    0.000000000e+00    0.000000000e+00
      586519286    7.733142376e-01   -2.374141961e-01   -3.555109724e-04   -1.736152917e-04    0.000000000e+00    0.000000000e+00    0.000000000e+00    0.000000000e+00
      592384379    7.446601987e-01   -3.373401165e-01   -3.750743344e-04   -1.488681883e-04    0.000000000e+00    0.000000000e+00    0.000000000e+00    0.000000000e+00
      598249472    7.027443051e-01   -4.351359904e-01   -3.761881962e-04   -1.126155257e-04    0.000000000e+00    0.000000000e+00    0.000000000e+00    0.000000000e+00
      604114565    6.499393582e-01   -5.261307359e-01   -3.811325878e-04   -3.388337791e-05    0.000000000e+00    0.000000000e+00    0.000000000e+00    0.000000000e+00
      609979658    5.864400268e-01   -6.108505726e-01   -3.736549988e-04   -4.944391549e-06    0.000000000e+00    0.000000000e+00    0.000000000e+00    0.000000000e+00
      615844751    5.135909915e-01   -6.877292395e-01   -4.267515615e-04    4.162080586e-05    0.000000000e+00    0.000000000e+00    0.000000000e+00    0.000000000e+00
      621709844    4.309452772e-01   -7.557908893e-01   -4.201931879e-04    1.048166305e-04    0.000000000e+00    0.000000000e+00    0.000000000e+00    0.000000000e+00
      627574936    3.398407698e-01   -8.130799532e-01   -3.925804049e-04    1.203725114e-04    0.000000000e+00    0.000000000e+00    0.000000000e+00    0.000000000e+00
      633440029    2.428964823e-01   -8.598125577e-01   -4.023350775e-04    1.452323049e-04    0.000000000e+00    0.000000000e+00    0.000000000e+00    0.000000000e+00
      639305122    1.392431706e-01   -8.950567842e-01   -3.941161558e-04    1.945104450e-04    0.000000000e+00    0.000000000e+00    0.000000000e+00    0.000000000e+00
      645170215    3.094898164e-02   -9.159942865e-01   -3.654006869e-04    2.628928050e-04    0.000000000e+00    0.000000000e+00    0.000000000e+00    0.000000000e+00
      651035308   -8.047577739e-02   -9.233996868e-01   -3.713639453e-04    3.025848418e-04    0.000000000e+00    0.000000000e+00    0.000000000e+00    0.000000000e+00
      656900401   -1.921910644e-01   -9.163843393e-01   -3.426428884e-04    3.779875115e-04    0.000000000e+00    0.000000000e+00    0.000000000e+00    0.000000000e+00
      662765494   -3.036669195e-01   -8.946050406e-01   -2.722106874e-04    4.508625716e-04    0.000000000e+00    0.000000000e+00    0.000000000e+00    0.000000000e+00
      668630587   -4.136555493e-01   -8.574758172e-01   -2.947086468e-04    4.991870373e-04    0.000000000e+00    0.000000000e+00    0.000000000e+00    0.000000000e+00
      674495679   -5.142124891e-01   -8.079799414e-01   -2.360455692e-04    5.177343264e-04    0.000000000e+00    0.000000000e+00    0.000000000e+00    0.000000000e+00
      680360772   -6.123884320e-01   -7.403646708e-01   -1.908894628e-04    6.146188825e-04    0.000000000e+00    0.000000000e+00    0.000000000e+00    0.000000000e+00
