! NanoVNA-App
! Date: 2025-10-01 20:01:10
! Start: 10kHz Stop: 4GHz Points: 1024
! S-Parameter data: F S11 S21 S12 S22
# Hz S RI R 50
!     Frequency           S11_Real           S11_Imag           S21_Real           S21_Imag           S12_Real           S12_Imag           S22_Real           S22_Imag
          10000    1.001827598e+00   -7.063057274e-05   -2.875924110e-06   -6.638467312e-06    0.000000000e+00    0.000000000e+00    0.000000000e+00    0.000000000e+00
        3920059    9.920058250e-01   -9.561947733e-02    7.826834917e-06   -1.520104706e-05    0.000000000e+00    0.000000000e+00    0.000000000e+00    0.000000000e+00
        7830117    9.769581556e-01   -1.893764138e-01   -7.075257599e-06   -5.813036114e-05    0.000000000e+00    0.000000000e+00    0.000000000e+00    0.000000000e+00
       11740176    9.540178180e-01   -2.806358039e-01    2.958066761e-05    2.256594598e-05    0.000000000e+00    0.000000000e+00    0.000000000e+00    0.000000000e+00
       15650235    9.233814478e-01   -3.683684766e-01    9.963288903e-05    5.185045302e-05    0.000000000e+00    0.000000000e+00    0.000000000e+00    0.000000000e+00
       19560293    8.851775527e-01   -4.533309937e-01   -8.188188076e-06   -2.605281770e-05    0.000000000e+00    0.000000000e+00    0.000000000e+00    0.000000000e+00
       23470352    8.386131525e-01   -5.335608125e-01    3.702938557e-06    2.947263420e-05    0.000000000e+00    0.000000000e+00    0.000000000e+00    0.000000000e+00
       27380411    7.857252955e-01   -6.094460487e-01   -3.581494093e-05   -4.717148840e-06    0.000000000e+00    0.000000000e+00    0.000000000e+00    0.000000000e+00
       31290469    7.260971069e-01   -6.797482371e-01    5.212426186e-05   -1.774728298e-05    0.000000000e+00    0.000000000e+00    0.000000000e+00    0.000000000e+00
       35200528    6.612880230e-01   -7.431952357e-01    3.613531590e-06    1.799035817e-05    0.000000000e+00    0.000000000e+00    0.000000000e+00    0.000000000e+00
       39110587    5.910876393e-01   -8.009049296e-01   -1.759175211e-05    1.471024007e-05    0.000000000e+00    0.000000000e+00    0.000000000e+00    0.000000000e+00
       43020645    5.169954300e-01   -8.515641093e-01    1.844391227e-05    1.864507794e-05    0.000000000e+00    0.000000000e+00    0.000000000e+00    0.000000000e+00
       46930704    4.387275875e-01   -8.950380683e-01   -2.257432789e-05    1.008016989e-04    0.000000000e+00    0.000000000e+00    0.000000000e+00    0.000000000e+00
       50840762    3.587992489e-01   -9.309499264e-01    2.885423601e-05    5.637481809e-05    0.000000000e+00    0.000000000e+00    0.000000000e+00    0.000000000e+00
       54750821    2.751516998e-01   -9.593736529e-01    4.347786307e-05    5.921348929e-06    0.000000000e+00    0.000000000e+00    0.000000000e+00    0.000000000e+00
       58660880    1.901008487e-01   -9.812094569e-01    2.050958574e-05    5.452241749e-05    0.000000000e+00    0.000000000e+00    0.000000000e+00    0.000000000e+00
       62570938    1.038669869e-01   -9.946807623e-01    3.237370402e-05   -2.531707287e-05    0.000000000e+00    0.000000000e+00    0.000000000e+00    0.000000000e+00
       66480997    1.802110299e-02   -1.000598073e+00    3.849621862e-05    3.692694008e-06    0.000000000e+00    0.000000000e+00    0.000000000e+00    0.000000000e+00
       70391056   -6.812108308e-02   -9.994653463e-01    5.450099707e-06    2.499949187e-05    0.000000000e+00    0.000000000e+00    0.000000000e+00    0.000000000e+00
       74301114   -1.528359950e-01   -9.912572503e-01    7.242895663e-06   -1.536682248e-07    0.000000000e+00    0.000000000e+00    0.000000000e+00    0.000000000e+00
       78211173   -2.363324463e-01   -9.761376977e-01   -6.828457117e-06    3.047380596e-05    0.000000000e+00    0.000000000e+00    0.000000000e+00    0.000000000e+00
       82121232   -3.174121082e-01   -9.538236260e-01    4.435423762e-05    3.944803029e-05    0.000000000e+00    0.000000000e+00    0.000000000e+00    0.000000000e+00
       86031290   -3.957034349e-01   -9.249281883e-01    4.188716412e-05    1.063942909e-05    0.000000000e+00    0.000000000e+00    0.000000000e+00    0.000000000e+00
       89941349   -4.715178907e-01   -8.903457522e-01    2.420973033e-05    1.680478454e-05    0.000000000e+00    0.000000000e+00    0.000000000e+00    0.000000000e+00
       93851408   -5.437281728e-01   -8.497231603e-01    3.978889436e-05   -2.453383058e-05    0.000000000e+00    0.000000000e+00    0.000000000e+00    0.000000000e+00
       97761466   -6.116972566e-01   -8.030591011e-01    6.649270654e-05   -1.058727503e-05    0.000000000e+00    0.000000000e+00    0.000000000e+00    0.000000000e+00
      101671525   -6.436572671e-01   -6.949046254e-01    9.529292583e-06   -5.269423127e-06    0.000000000e+00    0.000000000e+00    0.000000000e+00    0.000000000e+00
      105581584   -6.944187284e-01   -6.416590214e-01    2.059247345e-05   -9.559094906e-06    0.000000000e+00    0.000000000e+00    0.000000000e+00    0.000000000e+00
      109491642   -7.412704825e-01   -5.859672427e-01    1.507811248e-05    1.576915383e-05    0.000000000e+00    0.000000000e+00    0.000000000e+00    0.000000000e+00
      113401701   -7.831776738e-01   -5.267078876e-01    7.025245577e-05   -4.394911230e-06    0.000000000e+00    0.000000000e+00    0.000000000e+00    0.000000000e+00
      117311760   -8.213358521e-01   -4.648177922e-01    7.919035852e-06   -1.871027052e-05    0.000000000e+00    0.000000000e+00    0.000000000e+00    0.000000000e+00
      121221818   -8.544026613e-01   -4.002932906e-01    2.582930028e-05   -3.126729280e-05    0.000000000e+00    0.000000000e+00    0.000000000e+00    0.000000000e+00
      125131877   -8.829748034e-01   -3.340966702e-01    4.085712135e-06   -2.690125257e-05    0.000000000e+00    0.000000000e+00    0.000000000e+00    0.000000000e+00
      129041935   -9.062560201e-01   -2.649048865e-01   -7.889233530e-06   -1.727882773e-05    0.000000000e+00    0.000000000e+00    0.000000000e+00    0.000000000e+00
      132951994   -9.242431521e-01   -1.941767931e-01    5.147326738e-05   -3.307871521e-05    0.000000000e+00    0.000000000e+00    0.000000000e+00    0.000000000e+00
      136862053   -9.370731711e-01   -1.218516603e-01    1.963786781e-05   -2.790242434e-05    0.000000000e+00    0.000000000e+00    0.000000000e+00    0.000000000e+00
      140772111   -9.445303679e-01   -4.940067977e-02    3.283843398e-05   -3.568269312e-05    0.000000000e+00    0.000000000e+00    0.000000000e+00    0.000000000e+00
      144682170   -9.462459087e-01    2.506473474e-02    2.185255289e-05   -4.668720067e-05    0.000000000e+00    0.000000000e+00    0.000000000e+00    0.000000000e+00
      148592229   -9.417855740e-01    9.961591661e-02   -2.970453352e-05   -6.330013275e-05    0.000000000e+00    0.000000000e+00    0.000000000e+00    0.000000000e+00
      152502287   -9.319771528e-01    1.743864268e-01    1.826416701e-05   -4.187319428e-05    0.000000000e+00    0.000000000e+00    0.000000000e+00    0.000000000e+00
      156412346   -9.154191613e-01    2.486827374e-01    1.415982842e-05   -2.479087561e-05    0.000000000e+00    0.000000000e+00    0.000000000e+00    0.000000000e+00
      160322405   -8.934118152e-01    3.219894469e-01   -4.607532173e-05   -6.976071745e-05    0.000000000e+00    0.000000000e+00    0.000000000e+00    0.000000000e+00
      164232463   -8.637654185e-01    3.945114911e-01    1.866742969e-05   -4.390347749e-05    0.000000000e+00    0.000000000e+00    0.000000000e+00    0.000000000e+00
      168142522   -8.290125132e-01    4.651196897e-01   -3.334134817e-07   -6.081163883e-05    0.000000000e+00    0.000000000e+00    0.000000000e+00    0.000000000e+00
      172052581   -7.868246436e-01    5.326722860e-01   -4.494562745e-06   -2.952478826e-05    0.000000000e+00    0.000000000e+00    0.000000000e+00    0.000000000e+00
      175962639   -7.387505174e-01    5.977295637e-01   -1.331232488e-05   -6.019696593e-05    0.000000000e+00    0.000000000e+00    0.000000000e+00    0.000000000e+00
      179872698   -6.847348213e-01    6.590319872e-01    9.071081877e-07   -4.463549703e-05    0.000000000e+00    0.000000000e+00    0.000000000e+00    0.000000000e+00
      183782757   -6.244441271e-01    7.152466774e-01   -4.170462489e-06   -3.700703382e-05    0.000000000e+00    0.000000000e+00    0.000000000e+00    0.000000000e+00
      187692815   -5.586901903e-01    7.666332722e-01   -1.224689186e-06   -8.660554886e-05    0.000000000e+00    0.000000000e+00    0.000000000e+00    0.000000000e+00
      191602874   -4.877474308e-01    8.127997518e-01    1.012068242e-05   -6.888341159e-05    0.000000000e+00    0.000000000e+00    0.000000000e+00    0.000000000e+00
      195512933   -4.122598469e-01    8.520342112e-01    2.152286470e-06   -3.132876009e-05    0.000000000e+00    0.000000000e+00    0.000000000e+00    0.000000000e+00
      199422991   -3.320916295e-01    8.843991756e-01   -2.291798592e-05   -6.972718984e-05    0.000000000e+00    0.000000000e+00    0.000000000e+00    0.000000000e+00
      203333050   -2.486768067e-01    9.090439081e-01   -2.669915557e-05   -8.293613791e-05    0.000000000e+00    0.000000000e+00    0.000000000e+00    0.000000000e+00
      207243109   -1.629481316e-01    9.258311987e-01   -3.062374890e-05   -8.800998330e-05    0.000000000e+00    0.000000000e+00    0.000000000e+00    0.000000000e+00
      211153167   -7.494747639e-02    9.335543513e-01   -4.122219980e-05   -6.286799908e-05    0.000000000e+00    0.000000000e+00    0.000000000e+00    0.000000000e+00
      215063226    1.370977890e-02    9.337410331e-01   -3.078579903e-05   -5.785468966e-05    0.000000000e+00    0.000000000e+00    0.000000000e+00    0.000000000e+00
      218973284    1.023103148e-01    9.241437316e-01   -4.688650370e-05   -5.733966827e-05    0.000000000e+00    0.000000000e+00    0.000000000e+00    0.000000000e+00
      222883343    1.898245960e-01    9.062469006e-01   -4.898477346e-05   -8.017197251e-05    0.000000000e+00    0.000000000e+00    0.000000000e+00    0.000000000e+00
      226793402    2.751581967e-01    8.795649409e-01   -8.862372488e-05   -4.524178803e-05    0.000000000e+00    0.000000000e+00    0.000000000e+00    0.000000000e+00
      230703460    3.576929271e-01    8.449923396e-01   -7.020682096e-05   -6.266310811e-05    0.000000000e+00    0.000000000e+00    0.000000000e+00    0.000000000e+00
      234613519    4.363504648e-01    8.020190001e-01   -1.037176698e-04   -3.443472087e-05    0.000000000e+00    0.000000000e+00    0.000000000e+00    0.000000000e+00
      238523578    5.100584030e-01    7.525022030e-01   -9.659118950e-05   -6.089359522e-05    0.000000000e+00    0.000000000e+00    0.000000000e+00    0.000000000e+00
      242433636    5.779419541e-01    6.951096654e-01   -1.305155456e-04    1.040380448e-05    0.000000000e+00    0.000000000e+00    0.000000000e+00    0.000000000e+00
      246343695    6.398161650e-01    6.323759556e-01   -7.586274296e-05   -1.139659435e-05    0.000000000e+00    0.000000000e+00    0.000000000e+00    0.000000000e+00
      250253754    6.951834559e-01    5.638625026e-01   -9.077135473e-05   -2.938788384e-05    0.000000000e+00    0.000000000e+00    0.000000000e+00    0.000000000e+00
      254163812    7.433778644e-01    4.918609262e-01   -1.243660226e-04    5.056150258e-06    0.000000000e+00    0.000000000e+00    0.000000000e+00    0.000000000e+00
      258073871    7.840836048e-01    4.152774215e-01   -1.111142337e-04    1.581478864e-05    0.000000000e+00    0.000000000e+00    0.000000000e+00    0.000000000e+00
      261983930    8.167350292e-01    3.365630507e-01   -1.112977043e-04    3.619492054e-05    0.000000000e+00    0.000000000e+00    0.000000000e+00    0.000000000e+00
      265893988    8.425226212e-01    2.566076517e-01   -9.692460299e-05    3.598444164e-05    0.000000000e+00    0.000000000e+00    0.000000000e+00    0.000000000e+00
      269804047    8.599573374e-01    1.738982797e-01   -1.161964610e-04    1.364760101e-05    0.000000000e+00    0.000000000e+00    0.000000000e+00    0.000000000e+00
      273714106    8.702228069e-01    9.179525822e-02   -1.116944477e-04    3.118347377e-05    0.000000000e+00    0.000000000e+00    0.000000000e+00    0.000000000e+00
      277624164    8.727634549e-01    1.003976725e-02   -9.397976100e-05    6.395764649e-05    0.000000000e+00    0.000000000e+00    0.000000000e+00    0.000000000e+00
      281534223    8.683454990e-01   -7.125834376e-02   -1.071561128e-04    6.675813347e-05    0.000000000e+00    0.000000000e+00    0.000000000e+00    0.000000000e+00
      285444282    8.573708534e-01   -1.504265666e-01   -1.223739237e-04    5.504768342e-05    0.000000000e+00    0.000000000e+00    0.000000000e+00    0.000000000e+00
      289354340    8.389223814e-01   -2.272794545e-01   -8.343253285e-05    6.526149809e-05    0.000000000e+00    0.000000000e+00    0.000000000e+00    0.000000000e+00
      293264399    8.153131604e-01   -3.020132184e-01   -6.748735905e-05    7.200147957e-05    0.000000000e+00    0.000000000e+00    0.000000000e+00    0.000000000e+00
      297174457    7.859077454e-01   -3.734060824e-01   -8.806120604e-05    9.335577488e-05    0.000000000e+00    0.000000000e+00    0.000000000e+00    0.000000000e+00
      301084516    7.507905960e-01   -4.414106607e-01   -6.048101932e-05    1.154122874e-04    0.000000000e+00    0.000000000e+00    0.000000000e+00    0.000000000e+00
      304994575    7.100991607e-01   -5.063340664e-01   -8.724909276e-05    8.971150964e-05    0.000000000e+00    0.000000000e+00    0.000000000e+00    0.000000000e+00
      308904633    6.655176878e-01   -5.663621426e-01   -4.126410931e-05    1.089032739e-04    0.000000000e+00    0.000000000e+00    0.000000000e+00    0.000000000e+00
      312814692    6.163461208e-01   -6.230660677e-01   -5.354546010e-05    1.177638769e-04    0.000000000e+00    0.000000000e+00    0.000000000e+00    0.000000000e+00
      316724751    5.637437105e-01   -6.741510034e-01   -6.005726755e-05    8.856132627e-05    0.000000000e+00    0.000000000e+00    0.000000000e+00    0.000000000e+00
      320634809    5.077261329e-01   -7.220265269e-01   -1.643598080e-05    1.159124076e-04    0.000000000e+00    0.000000000e+00    0.000000000e+00    0.000000000e+00
      324544868    4.483484328e-01   -7.644783854e-01   -1.479312778e-05    1.426767558e-04    0.000000000e+00    0.000000000e+00    0.000000000e+00    0.000000000e+00
      328454927    3.857905865e-01   -8.015456200e-01   -7.038936019e-06    1.216270030e-04    0.000000000e+00    0.000000000e+00    0.000000000e+00    0.000000000e+00
      332364985    3.210792243e-01   -8.344936967e-01    1.355353743e-05    1.377379522e-04    0.000000000e+00    0.000000000e+00    0.000000000e+00    0.000000000e+00
      336275044    2.545158565e-01   -8.624905944e-01    2.306886017e-05    1.453123987e-04    0.000000000e+00    0.000000000e+00    0.000000000e+00    0.000000000e+00
      340185103    1.863795072e-01   -8.846095204e-01    2.908613533e-05    1.398017630e-04    0.000000000e+00    0.000000000e+00    0.000000000e+00    0.000000000e+00
      344095161    1.165982559e-01   -9.018484354e-01    4.078261554e-05    1.329910010e-04    0.000000000e+00    0.000000000e+00    0.000000000e+00    0.000000000e+00
      348005220    4.488989338e-02   -9.132713675e-01    8.035358042e-05    1.172311604e-04    0.000000000e+00    0.000000000e+00    0.000000000e+00    0.000000000e+00
      351915279   -2.626971900e-02   -9.199506640e-01    5.308073014e-05    1.230500638e-04    0.000000000e+00    0.000000000e+00    0.000000000e+00    0.000000000e+00
      355825337   -9.877616167e-02   -9.204559922e-01    3.791227937e-05    9.848177433e-05    0.000000000e+00    0.000000000e+00    0.000000000e+00    0.000000000e+00
      359735396   -1.706103981e-01   -9.159806371e-01    8.474756032e-05    1.283586025e-04    0.000000000e+00    0.000000000e+00    0.000000000e+00    0.000000000e+00
      363645455   -2.428150922e-01   -9.053791761e-01    1.075975597e-04    1.177508384e-04    0.000000000e+00    0.000000000e+00    0.000000000e+00    0.000000000e+00
      367555513   -3.134710789e-01   -8.894294500e-01    1.140004024e-04    1.367153600e-04    0.000000000e+00    0.000000000e+00    0.000000000e+00    0.000000000e+00
      371465572   -3.838948607e-01   -8.679790497e-01    1.089358702e-04    1.245411113e-04    0.000000000e+00    0.000000000e+00    0.000000000e+00    0.000000000e+00
      375375630   -4.528388977e-01   -8.408716917e-01    9.647198021e-05    7.563922554e-05    0.000000000e+00    0.000000000e+00    0.000000000e+00    0.000000000e+00
      379285689   -5.196524858e-01   -8.081847429e-01    8.845329285e-05    7.535517216e-05    0.000000000e+00    0.000000000e+00    0.000000000e+00    0.000000000e+00
      383195748   -5.843133926e-01   -7.690566778e-01    1.428937539e-04    9.124167264e-05    0.000000000e+00    0.000000000e+00    0.000000000e+00    0.000000000e+00
      387105806   -6.459804177e-01   -7.259922028e-01    7.707625628e-05    5.455594510e-05    0.000000000e+00    0.000000000e+00    0.000000000e+00    0.000000000e+00
      391015865   -7.045091987e-01   -6.759976149e-01    8.886959404e-05    4.553608596e-05    0.000000000e+00    0.000000000e+00    0.000000000e+00    0.000000000e+00
      394925924   -7.587228417e-01   -6.216364503e-01    1.430427656e-04    5.464814603e-05    0.000000000e+00    0.000000000e+00    0.000000000e+00    0.000000000e+00
      398835982   -8.095288277e-01   -5.621461272e-01    1.504039392e-04    3.249756992e-05    0.000000000e+00    0.000000000e+00    0.000000000e+00    0.000000000e+00
      402746041   -8.544713259e-01   -4.979205728e-01    1.358529553e-04    3.598630428e-05    0.000000000e+00    0.000000000e+00    0.000000000e+00    0.000000000e+00
      406656100   -8.949249387e-01   -4.282498658e-01    9.147543460e-05    2.529565245e-05    0.000000000e+00    0.000000000e+00    0.000000000e+00    0.000000000e+00
      410566158   -9.289134741e-01   -3.557235599e-01    7.552746683e-05    4.240032285e-05    0.000000000e+00    0.000000000e+00    0.000000000e+00    0.000000000e+00
      414476217   -9.567951560e-01   -2.793683708e-01    1.131184399e-04    1.851934940e-05    0.000000000e+00    0.000000000e+00    0.000000000e+00    0.000000000e+00
      418386276   -9.779874086e-01   -1.992269009e-01    1.379325986e-04   -4.100613296e-06    0.000000000e+00    0.000000000e+00    0.000000000e+00    0.000000000e+00
      422296334   -9.922061563e-01   -1.188118905e-01    1.680739224e-04    9.246170521e-06    0.000000000e+00    0.000000000e+00    0.000000000e+00    0.000000000e+00
      426206393   -9.982413650e-01   -3.483760357e-02    1.566642895e-04   -1.193210483e-05    0.000000000e+00    0.000000000e+00    0.000000000e+00    0.000000000e+00
      430116452   -9.968453050e-01    5.024196580e-02    1.320829615e-04    9.225681424e-06    0.000000000e+00    0.000000000e+00    0.000000000e+00    0.000000000e+00
      434026510   -9.873896837e-01    1.334497929e-01    1.633763313e-04   -5.748122931e-06    0.000000000e+00    0.000000000e+00    0.000000000e+00    0.000000000e+00
      437936569   -9.693852067e-01    2.177820802e-01    1.825923100e-04   -5.266256630e-05    0.000000000e+00    0.000000000e+00    0.000000000e+00    0.000000000e+00
      441846628   -9.440849423e-01    3.009333313e-01    1.689931378e-04   -3.516953439e-05    0.000000000e+00    0.000000000e+00    0.000000000e+00    0.000000000e+00
      445756686   -9.108169675e-01    3.795109391e-01    1.845322549e-04   -9.246077389e-05    0.000000000e+00    0.000000000e+00    0.000000000e+00    0.000000000e+00
      449666745   -8.692187667e-01    4.567562640e-01    1.950236037e-04   -1.121014357e-04    0.000000000e+00    0.000000000e+00    0.000000000e+00    0.000000000e+00
      453576804   -8.207972646e-01    5.286561251e-01    2.062954009e-04   -1.135477796e-04    0.000000000e+00    0.000000000e+00    0.000000000e+00    0.000000000e+00
