! NanoVNA-App
! Date: 2025-10-01 19:53:59
! Start: 10kHz Stop: 4GHz Points: 1024
! S-Parameter data: F S11 S21 S12 S22
# Hz S RI R 50
!     Frequency           S11_Real           S11_Imag           S21_Real           S21_Imag           S12_Real           S12_Imag           S22_Real           S22_Imag
          10000    1.002232552e+00    8.175615221e-05    2.359040082e-06   -8.935108781e-06    0.000000000e+00    0.000000000e+00    0.000000000e+00    0.000000000e+00
        3920059    9.919903278e-01   -9.708319604e-02    1.696962863e-05    2.986844629e-05    0.000000000e+00    0.000000000e+00    0.000000000e+00    0.000000000e+00
        7830117    9.766199589e-01   -1.924680620e-01    1.298822463e-05    2.935528755e-06    0.000000000e+00    0.000000000e+00    0.000000000e+00    0.000000000e+00
       11740176    9.528216720e-01   -2.845824361e-01   -6.620772183e-06    5.443394184e-05    0.000000000e+00    0.000000000e+00    0.000000000e+00    0.000000000e+00
       15650235    9.215862751e-01   -3.746409714e-01   -5.940347910e-05   -3.354344517e-05    0.000000000e+00    0.000000000e+00    0.000000000e+00    0.000000000e+00
       19560293    8.815015554e-01   -4.606393576e-01    2.553686500e-05    5.594454706e-06    0.000000000e+00    0.000000000e+00    0.000000000e+00    0.000000000e+00
       23470352    8.347637653e-01   -5.423254371e-01    2.751685679e-05    4.193931818e-05    0.000000000e+00    0.000000000e+00    0.000000000e+00    0.000000000e+00
       27380411    7.800880671e-01   -6.184136271e-01    1.172069460e-05    6.659887731e-06    0.000000000e+00    0.000000000e+00    0.000000000e+00    0.000000000e+00
       31290469    7.186163664e-01   -6.888075471e-01   -1.931097358e-05    3.513507545e-05    0.000000000e+00    0.000000000e+00    0.000000000e+00    0.000000000e+00
       35200528    6.524036527e-01   -7.534834743e-01    2.994295210e-05    3.427267075e-07    0.000000000e+00    0.000000000e+00    0.000000000e+00    0.000000000e+00
       39110587    5.806857347e-01   -8.105633259e-01    9.404495358e-06    1.488998532e-05    0.000000000e+00    0.000000000e+00    0.000000000e+00    0.000000000e+00
       43020645    5.046480894e-01   -8.609969020e-01    2.593733370e-05    3.993138671e-05    0.000000000e+00    0.000000000e+00    0.000000000e+00    0.000000000e+00
       46930704    4.244717956e-01   -9.048750401e-01    2.967566252e-05    9.641051292e-06    0.000000000e+00    0.000000000e+00    0.000000000e+00    0.000000000e+00
       50840762    3.412611187e-01   -9.399118423e-01    2.139899880e-05   -8.750706911e-06    0.000000000e+00    0.000000000e+00    0.000000000e+00    0.000000000e+00
       54750821    2.558129728e-01   -9.678328037e-01    3.128312528e-06    9.998679161e-06    0.000000000e+00    0.000000000e+00    0.000000000e+00    0.000000000e+00
       58660880    1.695782542e-01   -9.880638719e-01    4.876405001e-06    1.494958997e-05    0.000000000e+00    0.000000000e+00    0.000000000e+00    0.000000000e+00
       62570938    8.130262792e-02   -1.000677228e+00    1.756008714e-05    4.560686648e-05    0.000000000e+00    0.000000000e+00    0.000000000e+00    0.000000000e+00
       66480997   -7.028849795e-03   -1.005773664e+00    5.538482219e-05    7.071532309e-06    0.000000000e+00    0.000000000e+00    0.000000000e+00    0.000000000e+00
       70391056   -9.416367859e-02   -1.002154589e+00    6.871949881e-05    3.322679549e-05    0.000000000e+00    0.000000000e+00    0.000000000e+00    0.000000000e+00
       74301114   -1.806489974e-01   -9.920011163e-01    3.438442945e-06    2.240389585e-05    0.000000000e+00    0.000000000e+00    0.000000000e+00    0.000000000e+00
       78211173   -2.665439248e-01   -9.742794633e-01    6.038881838e-05    1.993216574e-05    0.000000000e+00    0.000000000e+00    0.000000000e+00    0.000000000e+00
       82121232   -3.480179310e-01   -9.492390752e-01    2.583116293e-05    6.227754056e-06    0.000000000e+00    0.000000000e+00    0.000000000e+00    0.000000000e+00
       86031290   -4.279767275e-01   -9.177902937e-01    8.759088814e-06    9.037554264e-06    0.000000000e+00    0.000000000e+00    0.000000000e+00    0.000000000e+00
       89941349   -5.039445162e-01   -8.799437284e-01    4.053395241e-05    1.467671245e-05    0.000000000e+00    0.000000000e+00    0.000000000e+00    0.000000000e+00
       93851408   -5.763258934e-01   -8.360928893e-01    4.490092397e-05    8.800998330e-07    0.000000000e+00    0.000000000e+00    0.000000000e+00    0.000000000e+00
       97761466   -6.445057392e-01   -7.864026427e-01    7.323734462e-05   -4.626065493e-05    0.000000000e+00    0.000000000e+00    0.000000000e+00    0.000000000e+00
      101671525   -6.722806692e-01   -6.746622324e-01    3.877654672e-05   -3.478676081e-05    0.000000000e+00    0.000000000e+00    0.000000000e+00    0.000000000e+00
      105581584   -7.226797342e-01   -6.189367771e-01    3.581494093e-05   -2.325419337e-05    0.000000000e+00    0.000000000e+00    0.000000000e+00    0.000000000e+00
      109491642   -7.688423991e-01   -5.597524047e-01    4.871468991e-05    7.918104529e-06    0.000000000e+00    0.000000000e+00    0.000000000e+00    0.000000000e+00
      113401701   -8.099010587e-01   -4.977747202e-01    6.192084402e-05   -4.094745964e-05    0.000000000e+00    0.000000000e+00    0.000000000e+00    0.000000000e+00
      117311760   -8.464882374e-01   -4.328320622e-01    4.168320447e-05   -4.077330232e-05    0.000000000e+00    0.000000000e+00    0.000000000e+00    0.000000000e+00
      121221818   -8.778551817e-01   -3.655123115e-01    4.721526057e-05   -2.853944898e-05    0.000000000e+00    0.000000000e+00    0.000000000e+00    0.000000000e+00
      125131877   -9.038482308e-01   -2.955120802e-01    3.829225898e-05   -1.911725849e-05    0.000000000e+00    0.000000000e+00    0.000000000e+00    0.000000000e+00
      129041935   -9.236820340e-01   -2.229736745e-01    2.830103040e-05   -3.995187581e-05    0.000000000e+00    0.000000000e+00    0.000000000e+00    0.000000000e+00
      132951994   -9.393422008e-01   -1.500940770e-01    2.645608038e-05   -4.239659756e-05    0.000000000e+00    0.000000000e+00    0.000000000e+00    0.000000000e+00
      136862053   -9.485360980e-01   -7.520031929e-02    2.155452967e-05   -5.558878183e-05    0.000000000e+00    0.000000000e+00    0.000000000e+00    0.000000000e+00
      140772111   -9.519101977e-01    1.031961292e-03    2.888962626e-06   -4.500430077e-05    0.000000000e+00    0.000000000e+00    0.000000000e+00    0.000000000e+00
      144682170   -9.489087462e-01    7.710833848e-02    1.349952072e-05   -3.698002547e-05    0.000000000e+00    0.000000000e+00    0.000000000e+00    0.000000000e+00
      148592229   -9.398053288e-01    1.533382088e-01    1.293234527e-05   -3.070291132e-05    0.000000000e+00    0.000000000e+00    0.000000000e+00    0.000000000e+00
      152502287   -9.243046045e-01    2.296105027e-01    6.950460374e-06   -5.379132926e-05    0.000000000e+00    0.000000000e+00    0.000000000e+00    0.000000000e+00
      156412346   -9.034186602e-01    3.048251271e-01    2.498086542e-05   -7.365085185e-05    0.000000000e+00    0.000000000e+00    0.000000000e+00    0.000000000e+00
      160322405   -8.747075796e-01    3.785796165e-01    1.826696098e-05   -7.161404938e-05    0.000000000e+00    0.000000000e+00    0.000000000e+00    0.000000000e+00
      164232463   -8.397054672e-01    4.507118762e-01    1.266598701e-06   -5.904026330e-05    0.000000000e+00    0.000000000e+00    0.000000000e+00    0.000000000e+00
      168142522   -7.986367345e-01    5.203624964e-01    7.008202374e-06   -7.285829633e-05    0.000000000e+00    0.000000000e+00    0.000000000e+00    0.000000000e+00
      172052581   -7.507333159e-01    5.865606070e-01    1.035723835e-05   -5.407445133e-05    0.000000000e+00    0.000000000e+00    0.000000000e+00    0.000000000e+00
      175962639   -6.966488361e-01    6.490152478e-01    7.042661309e-06   -8.413288742e-05    0.000000000e+00    0.000000000e+00    0.000000000e+00    0.000000000e+00
      179872698   -6.360700727e-01    7.069978118e-01    1.250579953e-05   -5.343742669e-05    0.000000000e+00    0.000000000e+00    0.000000000e+00    0.000000000e+00
      183782757   -5.698305964e-01    7.596898675e-01   -9.777024388e-06   -9.068287909e-05    0.000000000e+00    0.000000000e+00    0.000000000e+00    0.000000000e+00
      187692815   -4.983410537e-01    8.062979579e-01   -1.306924969e-05   -1.007970423e-04    0.000000000e+00    0.000000000e+00    0.000000000e+00    0.000000000e+00
      191602874   -4.227205217e-01    8.469312787e-01    9.677372873e-06   -8.607469499e-05    0.000000000e+00    0.000000000e+00    0.000000000e+00    0.000000000e+00
      195512933   -3.423021436e-01    8.802074194e-01   -1.470744610e-05   -9.906385094e-05    0.000000000e+00    0.000000000e+00    0.000000000e+00    0.000000000e+00
      199422991   -2.578537762e-01    9.054034352e-01   -7.138215005e-05   -8.475314826e-05    0.000000000e+00    0.000000000e+00    0.000000000e+00    0.000000000e+00
      203333050   -1.714921892e-01    9.234371185e-01   -5.919206887e-05   -1.003779471e-04    0.000000000e+00    0.000000000e+00    0.000000000e+00    0.000000000e+00
      207243109   -8.267731965e-02    9.318966269e-01   -6.662681699e-05   -1.187622547e-04    0.000000000e+00    0.000000000e+00    0.000000000e+00    0.000000000e+00
      211153167    6.432113238e-03    9.317408204e-01   -5.338713527e-05   -1.039337367e-04    0.000000000e+00    0.000000000e+00    0.000000000e+00    0.000000000e+00
      215063226    9.614092112e-02    9.230382442e-01   -9.488314390e-05   -6.527360529e-05    0.000000000e+00    0.000000000e+00    0.000000000e+00    0.000000000e+00
      218973284    1.844135970e-01    9.050620198e-01   -1.022405922e-04   -1.055905595e-04    0.000000000e+00    0.000000000e+00    0.000000000e+00    0.000000000e+00
      222883343    2.709594965e-01    8.790571690e-01   -1.034447923e-04   -5.883909762e-05    0.000000000e+00    0.000000000e+00    0.000000000e+00    0.000000000e+00
      226793402    3.546102345e-01    8.437380791e-01   -9.313505143e-05   -2.899765968e-05    0.000000000e+00    0.000000000e+00    0.000000000e+00    0.000000000e+00
      230703460    4.339279532e-01    8.008210063e-01   -1.082578674e-04   -3.828294575e-05    0.000000000e+00    0.000000000e+00    0.000000000e+00    0.000000000e+00
      234613519    5.089933276e-01    7.497133613e-01   -1.231012866e-04   -7.009599358e-05    0.000000000e+00    0.000000000e+00    0.000000000e+00    0.000000000e+00
      238523578    5.774292946e-01    6.924147010e-01   -1.171715558e-04   -3.132037818e-05    0.000000000e+00    0.000000000e+00    0.000000000e+00    0.000000000e+00
      242433636    6.405398250e-01    6.284891963e-01   -9.936280549e-05   -2.558715641e-05    0.000000000e+00    0.000000000e+00    0.000000000e+00    0.000000000e+00
      246343695    6.958800554e-01    5.595095158e-01   -1.277718693e-04   -9.778887033e-07    0.000000000e+00    0.000000000e+00    0.000000000e+00    0.000000000e+00
      250253754    7.449313402e-01    4.849306047e-01   -1.428062096e-04    5.042180419e-05    0.000000000e+00    0.000000000e+00    0.000000000e+00    0.000000000e+00
      254163812    7.851866484e-01    4.074292779e-01   -1.360783353e-04   -2.198852599e-06    0.000000000e+00    0.000000000e+00    0.000000000e+00    0.000000000e+00
      258073871    8.188230991e-01    3.272210360e-01   -1.420807093e-04    4.157051444e-05    0.000000000e+00    0.000000000e+00    0.000000000e+00    0.000000000e+00
      261983930    8.429903388e-01    2.445199490e-01   -1.162216067e-04    2.010911703e-05    0.000000000e+00    0.000000000e+00    0.000000000e+00    0.000000000e+00
      265893988    8.600934744e-01    1.605406106e-01   -1.441892236e-04    1.680292189e-05    0.000000000e+00    0.000000000e+00    0.000000000e+00    0.000000000e+00
      269804047    8.693166375e-01    7.678828388e-02   -1.500416547e-04    8.291751146e-05    0.000000000e+00    0.000000000e+00    0.000000000e+00    0.000000000e+00
      273714106    8.708441257e-01   -6.873292848e-03   -1.287991181e-04    4.688743502e-05    0.000000000e+00    0.000000000e+00    0.000000000e+00    0.000000000e+00
      277624164    8.644492030e-01   -8.940798789e-02   -1.660352573e-04    8.339900523e-05    0.000000000e+00    0.000000000e+00    0.000000000e+00    0.000000000e+00
      281534223    8.510695100e-01   -1.700731218e-01   -1.096082851e-04    1.206109300e-04    0.000000000e+00    0.000000000e+00    0.000000000e+00    0.000000000e+00
      285444282    8.306087255e-01   -2.490679175e-01   -9.126123041e-05    9.563006461e-05    0.000000000e+00    0.000000000e+00    0.000000000e+00    0.000000000e+00
      289354340    8.048249483e-01   -3.243414462e-01   -1.215767115e-04    1.190397888e-04    0.000000000e+00    0.000000000e+00    0.000000000e+00    0.000000000e+00
      293264399    7.718905210e-01   -3.963320255e-01   -1.147417352e-04    1.272736117e-04    0.000000000e+00    0.000000000e+00    0.000000000e+00    0.000000000e+00
      297174457    7.335959673e-01   -4.649990201e-01   -5.565956235e-05    9.536836296e-05    0.000000000e+00    0.000000000e+00    0.000000000e+00    0.000000000e+00
      301084516    6.901959777e-01   -5.293656588e-01   -8.081272244e-05    1.384215429e-04    0.000000000e+00    0.000000000e+00    0.000000000e+00    0.000000000e+00
      304994575    6.423218846e-01   -5.895935297e-01   -3.695860505e-05    1.180060208e-04    0.000000000e+00    0.000000000e+00    0.000000000e+00    0.000000000e+00
      308904633    5.894601941e-01   -6.447300911e-01   -4.609301686e-05    1.620510593e-04    0.000000000e+00    0.000000000e+00    0.000000000e+00    0.000000000e+00
      312814692    5.335694551e-01   -6.954739094e-01   -7.702596486e-05    1.519881189e-04    0.000000000e+00    0.000000000e+00    0.000000000e+00    0.000000000e+00
      316724751    4.742079675e-01   -7.412801385e-01   -4.923157394e-05    1.531392336e-04    0.000000000e+00    0.000000000e+00    0.000000000e+00    0.000000000e+00
      320634809    4.108276963e-01   -7.815575004e-01   -4.037842155e-05    1.973593608e-04    0.000000000e+00    0.000000000e+00    0.000000000e+00    0.000000000e+00
      324544868    3.454617858e-01   -8.167776465e-01   -1.076888293e-05    1.726690680e-04    0.000000000e+00    0.000000000e+00    0.000000000e+00    0.000000000e+00
      328454927    2.776631713e-01   -8.462879062e-01   -5.559995770e-05    1.570964232e-04    0.000000000e+00    0.000000000e+00    0.000000000e+00    0.000000000e+00
      332364985    2.080162764e-01   -8.706004024e-01   -1.674517989e-06    1.588771120e-04    0.000000000e+00    0.000000000e+00    0.000000000e+00    0.000000000e+00
      336275044    1.376300901e-01   -8.892292380e-01   -5.858950317e-06    1.733209938e-04    0.000000000e+00    0.000000000e+00    0.000000000e+00    0.000000000e+00
      340185103    6.542830169e-02   -9.021859169e-01    2.942979336e-07    1.764390618e-04    0.000000000e+00    0.000000000e+00    0.000000000e+00    0.000000000e+00
      344095161   -6.666688249e-03   -9.093409777e-01    9.303912520e-06    1.834752038e-04    0.000000000e+00    0.000000000e+00    0.000000000e+00    0.000000000e+00
      348005220   -8.037371188e-02   -9.108641744e-01    3.612320870e-05    1.668119803e-04    0.000000000e+00    0.000000000e+00    0.000000000e+00    0.000000000e+00
      351915279   -1.531752944e-01   -9.060119390e-01    5.418341607e-05    1.757657155e-04    0.000000000e+00    0.000000000e+00    0.000000000e+00    0.000000000e+00
      355825337   -2.260307223e-01   -8.957588077e-01    1.058923081e-04    2.201693133e-04    0.000000000e+00    0.000000000e+00    0.000000000e+00    0.000000000e+00
      359735396   -2.975763083e-01   -8.806363344e-01    1.053540036e-04    1.879865304e-04    0.000000000e+00    0.000000000e+00    0.000000000e+00    0.000000000e+00
      363645455   -3.679600358e-01   -8.589389324e-01    9.795092046e-05    1.666359603e-04    0.000000000e+00    0.000000000e+00    0.000000000e+00    0.000000000e+00
      367555513   -4.367514551e-01   -8.317689300e-01    1.549562439e-04    1.600729302e-04    0.000000000e+00    0.000000000e+00    0.000000000e+00    0.000000000e+00
      371465572   -5.032015443e-01   -7.983627319e-01    1.500761136e-04    1.738071442e-04    0.000000000e+00    0.000000000e+00    0.000000000e+00    0.000000000e+00
      375375630   -5.678098202e-01   -7.612783313e-01    1.854067668e-04    1.567136496e-04    0.000000000e+00    0.000000000e+00    0.000000000e+00    0.000000000e+00
      379285689   -6.290470958e-01   -7.174639702e-01    1.944955438e-04    1.379763708e-04    0.000000000e+00    0.000000000e+00    0.000000000e+00    0.000000000e+00
      383195748   -6.863326430e-01   -6.675270796e-01    2.126786858e-04    1.261457801e-04    0.000000000e+00    0.000000000e+00    0.000000000e+00    0.000000000e+00
      387105806   -7.403599620e-01   -6.143651605e-01    2.038748935e-04    1.157280058e-04    0.000000000e+00    0.000000000e+00    0.000000000e+00    0.000000000e+00
      391015865   -7.898839116e-01   -5.550615788e-01    1.897281036e-04    7.455423474e-05    0.000000000e+00    0.000000000e+00    0.000000000e+00    0.000000000e+00
      394925924   -8.342954516e-01   -4.916793108e-01    1.936703920e-04    9.981822222e-05    0.000000000e+00    0.000000000e+00    0.000000000e+00    0.000000000e+00
      398835982   -8.735803366e-01   -4.248729348e-01    2.180775627e-04    7.773097605e-05    0.000000000e+00    0.000000000e+00    0.000000000e+00    0.000000000e+00
      402746041   -9.070204496e-01   -3.521270752e-01    2.207485959e-04    1.426599920e-05    0.000000000e+00    0.000000000e+00    0.000000000e+00    0.000000000e+00
      406656100   -9.346647859e-01   -2.792972624e-01    2.695862204e-04    4.676450044e-05    0.000000000e+00    0.000000000e+00    0.000000000e+00    0.000000000e+00
      410566158   -9.544574618e-01   -2.013438344e-01    2.641668543e-04    1.089554280e-05    0.000000000e+00    0.000000000e+00    0.000000000e+00    0.000000000e+00
      414476217   -9.685743451e-01   -1.216499060e-01    2.699512988e-04   -4.975125194e-06    0.000000000e+00    0.000000000e+00    0.000000000e+00    0.000000000e+00
      418386276   -9.752961993e-01   -4.131635278e-02    2.580145374e-04   -5.065277219e-05    0.000000000e+00    0.000000000e+00    0.000000000e+00    0.000000000e+00
      422296334   -9.742511511e-01    4.084501788e-02    2.525784075e-04   -3.572832793e-05    0.000000000e+00    0.000000000e+00    0.000000000e+00    0.000000000e+00
      426206393   -9.656330943e-01    1.231206059e-01    2.425722778e-04   -9.080767632e-05    0.000000000e+00    0.000000000e+00    0.000000000e+00    0.000000000e+00
      430116452   -9.493411779e-01    2.045612931e-01    2.259640023e-04   -1.106895506e-04    0.000000000e+00    0.000000000e+00    0.000000000e+00    0.000000000e+00
      434026510   -9.264667034e-01    2.834042311e-01    2.465574071e-04   -1.275772229e-04    0.000000000e+00    0.000000000e+00    0.000000000e+00    0.000000000e+00
      437936569   -8.939059973e-01    3.608807325e-01    2.116886899e-04   -1.442348585e-04    0.000000000e+00    0.000000000e+00    0.000000000e+00    0.000000000e+00
      441846628   -8.551951051e-01    4.357146919e-01    2.098055556e-04   -1.797517762e-04    0.000000000e+00    0.000000000e+00    0.000000000e+00    0.000000000e+00
      445756686   -8.100219369e-01    5.060153008e-01    2.437662333e-04   -2.160863951e-04    0.000000000e+00    0.000000000e+00    0.000000000e+00    0.000000000e+00
      449666745   -7.569143772e-01    5.726630092e-01    1.851608977e-04   -1.528933644e-04    0.000000000e+00    0.000000000e+00    0.000000000e+00    0.000000000e+00
      453576804   -6.991941333e-01    6.328763962e-01    1.849308610e-04   -2.347417176e-04    0.000000000e+00    0.000000000e+00    0.000000000e+00    0.000000000e+00
