! TOUCHSTONE file generated by CST MICROWAVE STUDIO
! Date and time: Sun Jun 29 16:25:08 2025
! Project name: ResonadorAnillo.cst
! Parameters = {Eeff=3.2499; Er=4.3; H=1.56; L1=20.8016; L2=20.8016; Landa=83.2063; T=0.035; W=2.85151; Wa=2.85151; X=58.2973; Y=58.2973; c=3e+11; f=2e+09; r=13.2427; s=0.3}
! Header version: 2024
! Port assignment regex: !\s*Touchstone port\s*([0-9]+)\s*=\s*(CST MWS port|CST DES external port|CST DES block port)\s*(.+)\s* \(\"(.*)\"\)(\s*mode\s*([0-9]+))?.*
! Touchstone port assignment:
! Touchstone port 1 = CST MWS port 1 ("")
! Touchstone port 2 = CST MWS port 2 ("")
# GHz S DB R 50
0                 5.23207509e-06               0       -154.75265               0      -154.752648               0   5.10624799e-06               0
0.0026           -0.000408601052    -0.169113485      -111.182382      89.5523316      -111.182382      89.5523317  -0.000422179206    -0.168985279
0.0052           -0.000824257446    -0.338254459      -105.138231      89.4366692      -105.138231      89.4366692  -0.000855575636    -0.338008829
0.0078            -0.00124426639    -0.507424913      -101.609699      89.2717609      -101.609699      89.2717609   -0.00129747399    -0.507072994
0.0104            -0.00165713208    -0.676551305      -99.1106219      89.1103216      -99.1106219      89.1103216   -0.00172533379    -0.676074691
0.013             -0.00198965337    -0.845296108      -97.1794677      89.0038817      -97.1794677      89.0038817   -0.00199578194    -0.844522938
0.0156            -0.00232179859     -1.01430271      -95.6008819      88.8930955      -95.6008819      88.8930956   -0.00222335179     -1.01313619
0.0182             -0.0026325037     -1.18340767      -94.2649731      88.7593952      -94.2649731      88.7593952   -0.00256383877     -1.18239557
0.0208            -0.00292151053     -1.35251985      -93.1089939      88.6272108      -93.1089939      88.6272108   -0.00291846313     -1.35175365
0.0234            -0.00325247406     -1.52189914      -92.0905426      88.4917972      -92.0905426      88.4917972   -0.00326950262     -1.52087534
0.026             -0.00361634978     -1.69138938      -91.1805947      88.3560981      -91.1805947      88.3560982   -0.00361723827     -1.68986327
0.0286            -0.00393347221     -1.86049112      -90.3597136      88.2342754      -90.3597136      88.2342755   -0.00391130967     -1.85860373
0.0312            -0.00424187582     -2.02947162      -89.6103369      88.1122691      -89.6103369      88.1122691   -0.00423830985     -2.02766308
0.0338            -0.00454213702     -2.19838187      -88.9214478      87.9929463      -88.9214478      87.9929464   -0.00456643162     -2.19674521
0.0364            -0.00486355704     -2.36747703      -88.2836765      87.8739434      -88.2836765      87.8739434   -0.00489066224     -2.36576445
0.039             -0.00519915533     -2.53671903       -87.689887      87.7558287       -87.689887      87.7558287    -0.0052111181     -2.53476222
0.0416            -0.00551229643      -2.7058523      -87.1348991       87.642492      -87.1348991       87.642492   -0.00550867664     -2.70362867
0.0442            -0.00582103238       -2.874972      -86.6133068      87.5288388      -86.6133068      87.5288388   -0.00582895353       -2.872676
0.0468            -0.00612565778     -3.04406534       -86.121497       87.416211       -86.121497       87.416211   -0.00615015053     -3.04173403
0.0494            -0.00644312489     -3.21321726      -85.6561412      87.3035306      -85.6561412      87.3035306   -0.00646900463     -3.21075914
0.052             -0.00676858941     -3.38241899       -85.214451      87.1909389       -85.214451      87.1909389   -0.00678558253     -3.37977442
0.0546            -0.00708057098      -3.5515684       -84.794262      87.0801226       -84.794262      87.0801226   -0.00708778026     -3.54871133
0.0572            -0.00738992493     -3.72071745      -84.3932439      86.9685457      -84.3932439      86.9685457   -0.00740540809     -3.71776613
0.0598            -0.00769689906     -3.88986331       -84.009782      86.8568635       -84.009782      86.8568635   -0.00772370901     -3.88682718
0.0624            -0.00801308033     -4.05906329      -83.6423248      86.7445012      -83.6423248      86.7445012   -0.00804052123     -4.05586795
0.065              -0.0083347792     -4.22828257      -83.2895514       86.631521      -83.2895514       86.631521   -0.00835588983     -4.22490379
0.0676            -0.00864724169      -4.3974527      -82.9503822      86.5188275      -82.9503822      86.5188275   -0.00866149811     -4.39388669
0.0702            -0.00895800427     -4.56661038      -82.6236038      86.4049599      -82.6236038      86.4049599   -0.00897854777     -4.56295522
0.0728            -0.00926730583      -4.7357659       -82.308355      86.2903037       -82.308355      86.2903037   -0.00929622184     -4.73202896
0.0754            -0.00958374913     -4.90496842      -82.0037851       86.174553      -82.0037851       86.174553   -0.00961295506     -4.90108978
0.078             -0.00990443795     -5.07418962      -81.7091648      86.0577405      -81.7091648      86.0577405   -0.00992878026      -5.0701486
0.0806             -0.0102184292     -5.24338625      -81.4238814      85.9404113      -81.4238814      85.9404113    -0.0102375181     -5.23916908
0.0832             -0.0105313238     -5.41257592      -81.1472355      85.8216488      -81.1472355      85.8216488    -0.0105552565     -5.40825615
0.0858             -0.0108433314     -5.58176598      -80.8787223      85.7017164      -80.8787223      85.7017164    -0.0108736309     -5.57734841
0.0884             -0.0111610907     -5.75098654      -80.6178327      85.5804473      -80.6178327      85.5804473    -0.0111914398     -5.74643253
0.091              -0.0114822813     -5.92021815      -80.3641217      85.4578672      -80.3641217      85.4578672    -0.0115087084     -5.91551664
0.0936             -0.0117984594     -6.08944258      -80.1172037      85.3343369      -80.1172037      85.3343369    -0.0118206047      -6.0845718
0.0962             -0.0121139482     -6.25866383      -79.8766439      85.2092482      -79.8766439      85.2092482     -0.012139885      -6.2536813
0.0988             -0.0124289349     -6.42788721       -79.642123      85.0827971       -79.642123      85.0827971     -0.012459832     -6.42279629
0.1014             -0.0127487017     -6.59712944      -79.4133141      84.9548858      -79.4133141      84.9548858    -0.0127794849     -6.59190651
0.104               -0.013071352     -6.76637749      -79.1899265      84.8255416      -79.1899265      84.8255416    -0.0130988639     -6.76101819
0.1066             -0.0133901767      -6.9356315      -78.9716993      84.6950231      -78.9716993      84.6950231    -0.0134140524     -6.93010748
0.1092             -0.0137086039     -7.10488514       -78.758347      84.5629106       -78.758347      84.5629107    -0.0137354918     -7.09924269
0.1118             -0.0140268029     -7.27414222      -78.5496556      84.4293576      -78.5496556      84.4293576    -0.0140576338     -7.26838383
0.1144             -0.0143490866     -7.44340934      -78.3454046      84.2943078      -78.3454046      84.2943078    -0.0143796872     -7.43752272
0.117              -0.0146738747     -7.61267832      -78.1453937      84.1577895      -78.1453937      84.1577895    -0.0147016685     -7.60666427
0.1196             -0.0149957071      -7.7819638      -77.9494353      84.0199948      -77.9494353      84.0199948    -0.0150203169     -7.77578822
0.1222             -0.0153173615     -7.95125113      -77.7573346      83.8806264      -77.7573346      83.8806264    -0.0153443877     -7.94495211
0.1248             -0.0156389926     -8.12054293      -77.5689412      83.7398076      -77.5689412      83.7398076    -0.0156691978     -8.11412241
0.1274             -0.0159641942     -8.28983771      -77.3841002      83.5975094      -77.3841002      83.5975094    -0.0159940805     -8.28329244
0.13               -0.0162916289     -8.45913115      -77.2026675      83.4537589      -77.2026675      83.4537589    -0.0163190497     -8.45246613
0.1326             -0.0166167693     -8.62844993      -77.0245022      83.3087014      -77.0245022      83.3087014     -0.016641333      -8.6216259
0.1352             -0.0169419038     -8.79777242      -76.8494669      83.1621231      -76.8494669      83.1621231    -0.0169684133     -8.79082119
0.1378             -0.0172671745     -8.96710025      -76.6774528      83.0141243      -76.6774528      83.0141243    -0.0172962687     -8.96002339
0.1404             -0.0175956246     -9.13642519      -76.5083457      82.8646831      -76.5083457      82.8646831    -0.0176243272     -9.12922694
0.143              -0.0179261074     -9.30574613      -76.3420392      82.7138284      -76.3420392      82.7138284    -0.0179526007     -9.29843503
0.1456             -0.0182548115     -9.47510009      -76.1784236      82.5616762      -76.1784236      82.5616762     -0.018278692      -9.4676321
0.1482             -0.0185836486     -9.64445945      -76.0173994       82.408076      -76.0173994       82.408076    -0.0186090951     -9.63686134
0.1508             -0.0189127506     -9.81382495      -75.8588859      82.2531059      -75.8588859      82.2531059    -0.0189403075     -9.80609801
0.1534             -0.0192447369     -9.98318257      -75.7027978      82.0967265      -75.7027978      82.0967265    -0.0192718313     -9.97533736
0.156              -0.0195786104     -10.1525341      -75.5490539      81.9389746      -75.5490539      81.9389746    -0.0196036771      -10.144582
0.1586             -0.0199111078     -10.3219256      -75.3975653       81.779956      -75.3975653       81.779956    -0.0199337399      -10.313818
0.1612             -0.0202438536     -10.4913241      -75.2482523      81.6195893      -75.2482523      81.6195893    -0.0202677249     -10.4830836
0.1638             -0.0205769706     -10.6607296      -75.1010593      81.4579154      -75.1010593      81.4579154    -0.0206025505      -10.652357
0.1664              -0.020912757     -10.8301228      -74.9559264      81.2948706      -74.9559264      81.2948706    -0.0209377783     -10.8216342
0.169              -0.0212503311     -10.9995081      -74.8127882      81.1304997      -74.8127882      81.1304997    -0.0212734186     -10.9909176
0.1716             -0.0215868472     -11.1689401      -74.6715678      80.9649035      -74.6715678      80.9649035    -0.0216076163     -11.1601957
0.1742             -0.0219237096     -11.3383808      -74.5322295      80.7973825      -74.5322295      80.7973825    -0.0219455201     -11.3295037
0.1768             -0.0222610344     -11.5078293      -74.3947105      80.6285152      -74.3947105      80.6285152    -0.0222843199     -11.4988232
0.1794             -0.0226008629     -11.6772611      -74.2589687       80.458321      -74.2589687       80.458321    -0.0226236178     -11.6681516
0.182              -0.0229424072     -11.8466834      -74.1249505      80.2868433      -74.1249505      80.2868433    -0.0229634169     -11.8374876
0.1846             -0.0232831609     -12.0161586      -73.9925874      80.1141668      -73.9925874      80.1141668      -0.02330205     -12.0068163
0.1872             -0.0236243471     -12.1856442      -73.8618583      79.9411605      -73.8618583      79.9411605    -0.0236439568     -12.1761668
0.1898             -0.0239660754     -12.3551382        -73.73271      79.7670857        -73.73271      79.7670857    -0.0239867484     -12.3455214
0.1924             -0.0243101618     -12.5246115      -73.6051155      79.5918141      -73.6051155      79.5918141    -0.0243300828     -12.5148758
0.195              -0.0246559017     -12.6940733      -73.4790263      79.4153721      -73.4790263      79.4153721    -0.0246739761     -12.6842357
0.1976             -0.0250010907     -12.8635939      -73.3543775       79.237811      -73.3543775       79.237811     -0.025016918     -12.8535935
0.2002             -0.0253467903     -13.0331264      -73.2311167      79.0587728      -73.2311167      79.0587728     -0.025363051     -13.0229786
0.2028             -0.0256931033     -13.2026679       -73.109234      78.8785671       -73.109234      78.8785671    -0.0257101276     -13.1923754
0.2054             -0.0260416424     -13.3721849      -72.9887152      78.6972384      -72.9887152      78.6972384     -0.026057828     -13.3617815
0.208              -0.0263917789     -13.5416886       -72.869521      78.5148037       -72.869521      78.5148037    -0.0264061562     -13.5311963
0.2106             -0.0267415812     -13.7112565      -72.7515943      78.3312895      -72.7515943      78.3312895    -0.0267537342     -13.7006085
0.2132             -0.0270919651     -13.8808376      -72.6349166       78.146626      -72.6349166       78.146626    -0.0271043188     -13.8700445
0.2158             -0.0274430269     -14.0504282      -72.5194614      77.9608846      -72.5194614      77.9608846    -0.0274558716     -14.0394904
0.2184             -0.0277962002     -14.2199909      -72.4052164      77.7740949      -72.4052164      77.7740949    -0.0278081023      -14.208944
0.221              -0.0281509244     -14.3895387      -72.2921479      77.5862648      -72.2921479      77.5862648    -0.0281610177     -14.3784062
0.2236             -0.0285055063     -14.5591556      -72.1802038      77.3974015      -72.1802038      77.3974015    -0.0285133588     -14.5478671
0.2262             -0.0288607354      -14.728787      -72.0693715      77.2074735      -72.0693715      77.2074735     -0.028868562     -14.7173513
0.2288             -0.0292167011     -14.8984286      -71.9596291      77.0165244      -71.9596291      77.0165244    -0.0292247629      -14.886846
0.2314             -0.0295746824      -15.068039      -71.8509684      76.8245888      -71.8509684      76.8245888    -0.0295816958     -15.0563492
0.234              -0.0299341776      -15.237633      -71.7433604      76.6316698      -71.7433604      76.6316698    -0.0299393669     -15.2258615
0.2366             -0.0302937002     -15.4073007      -71.6367574      76.4377622      -71.6367574      76.4377622    -0.0302966152     -15.3953735
0.2392             -0.0306539308     -15.5769845      -71.5311515      76.2428507      -71.5311515      76.2428507     -0.030656606     -15.5649082
0.2418             -0.0310149522     -15.7466788      -71.4265246      76.0469691      -71.4265246      76.0469691    -0.0310176239     -15.7344539
0.2444             -0.0313779094      -15.916339      -71.3228715      75.8501545      -71.3228715      75.8501545     -0.031379424     -15.9040087
0.247              -0.0317423521     -16.0859812       -71.220167      75.6524074       -71.220167      75.6524074    -0.0317420125     -16.0735732
0.2496             -0.0321069733     -16.2557018       -71.118367      75.4537132       -71.118367      75.4537132    -0.0321043126     -16.2431383
0.2522             -0.0324723593     -16.4254398      -71.0174673      75.2540678      -71.0174673      75.2540678    -0.0324692551     -16.4127256
0.2548             -0.0328385868     -16.5951888      -70.9174527      75.0534987      -70.9174527      75.0534987     -0.032835254     -16.5823244
0.2574             -0.0332066835     -16.7649007      -70.8183207      74.8520448      -70.8183207      74.8520448    -0.0332020826      -16.751933
0.26               -0.0335762444     -16.9345933       -70.720049      74.6497044       -70.720049      74.6497044    -0.0335697467     -16.9215517
0.2626             -0.0339461194     -17.1043686      -70.6225965      74.4464558      -70.6225965      74.4464558    -0.0339372428     -17.0911718
0.2652             -0.0343168132     -17.2741627      -70.5259618      74.2423031      -70.5259618      74.2423031    -0.0343072974     -17.2608139
0.2678             -0.0346883962     -17.4439685      -70.4301322      74.0372695      -70.4301322      74.0372695    -0.0346784375     -17.4304679
0.2704             -0.0350617925     -17.6137341      -70.3351074      73.8313952      -70.3351074      73.8313952    -0.0350504524     -17.6001323
0.273              -0.0354366376     -17.7834792      -70.2408675      73.6246767      -70.2408675      73.6246767    -0.0354233477     -17.7698073
0.2756             -0.0358119202     -17.9533111      -70.1473737      73.4170862      -70.1473737      73.4170862    -0.0357961841     -17.9394844
0.2782             -0.0361880728     -18.1231633       -70.054627      73.2086344       -70.054627      73.2086344    -0.0361715081     -18.1091833
0.2808             -0.0365651601     -18.2930276      -69.9626167      72.9993415      -69.9626167      72.9993415    -0.0365479469     -18.2788945
0.2834             -0.0369440136      -18.462849      -69.8713442      72.7892486      -69.8713442      72.7892486    -0.0369253036     -18.4486167
0.286              -0.0373243052     -18.6326485      -69.7807918      72.5783509      -69.7807918      72.5783509    -0.0373035837     -18.6183501
0.2886             -0.0377051475      -18.802539      -69.6909225      72.3666146      -69.6909225      72.3666146    -0.0376819044     -18.7880862
0.2912             -0.0380869091     -18.9724512      -69.6017392      72.1540568      -69.6017392      72.1540568    -0.0380626531     -18.9578438
0.2938             -0.0384696489     -19.1423759      -69.5132329      71.9406946      -69.5132329      71.9406946    -0.0384445458     -19.1276142
0.2964             -0.0388541154     -19.3122551      -69.4254066      71.7265705      -69.4254066      71.7265705    -0.0388273981     -19.2973963
0.299               -0.039240013     -19.4821111       -69.338244      71.5116782       -69.338244      71.5116782    -0.0392112153     -19.4671899
0.3016             -0.0396265661     -19.6520619      -69.2517101       71.295979      -69.2517101       71.295979    -0.0395951644     -19.6369869
0.3042             -0.0400140862     -19.8220359       -69.165809      71.0794949       -69.165809      71.0794949    -0.0399814916     -19.8068053
0.3068             -0.0404026265     -19.9920229      -69.0805332      70.8622407      -69.0805332      70.8622407    -0.0403689921     -19.9766369
0.3094             -0.0407928601     -20.1619617      -68.9958871      70.6442605      -68.9958871      70.6442605    -0.0407574925     -20.1464808
0.312              -0.0411845216     -20.3318761      -68.9118557      70.4255465      -68.9118557      70.4255465    -0.0411469981     -20.3163366
0.3146             -0.0415769358     -20.5018891      -68.8284054      70.2060553      -68.8284054      70.2060553    -0.0415367201     -20.4861963
0.3172             -0.0419703634     -20.6719267      -68.7455415      69.9858135      -68.7455415      69.9858135    -0.0419287785     -20.6560774
0.3198             -0.0423648519     -20.8419779      -68.6632577      69.7648339      -68.6632577      69.7648339    -0.0423220395     -20.8259722
0.3224              -0.042761006     -21.0119782      -68.5815595      69.5431622      -68.5815595      69.5431622    -0.0427163398     -20.9958797
0.325              -0.0431585874      -21.181953      -68.5004331      69.3207893      -68.5004331      69.3207893    -0.0431116845     -21.1657996
0.3276             -0.0435570127     -21.3520298       -68.419846      69.0976673       -68.419846      69.0976673    -0.0435073244     -21.3357239
0.3302             -0.0439564967     -21.5221329      -68.3398047       68.873827      -68.3398047       68.873827    -0.0439052661     -21.5056696
0.3328             -0.0443570814     -21.6922499      -68.2603037      68.6492794      -68.2603037      68.6492794    -0.0443044399     -21.6756294
0.3354             -0.0447593084     -21.8623136      -68.1813495      68.4240721      -68.1813495      68.4240721    -0.0447046914     -21.8456024
