! NanoVNA-App
! Date: 2025-10-01 20:26:19
! Start: 100kHz Stop: 6.3GHz Points: 1024
! S-Parameter data: F S11 S21 S12 S22
# Hz S RI R 50
!     Frequency           S11_Real           S11_Imag           S21_Real           S21_Imag           S12_Real           S12_Imag           S22_Real           S22_Imag
         100000    1.003835559e+00   -2.408370376e-03    8.212402463e-06   -1.125317067e-05    0.000000000e+00    0.000000000e+00    0.000000000e+00    0.000000000e+00
        6258260    9.858294725e-01   -1.465668678e-01   -7.516704500e-06    1.376494765e-06    0.000000000e+00    0.000000000e+00    0.000000000e+00    0.000000000e+00
       12416520    9.535300136e-01   -2.857318819e-01    2.036243677e-05    1.749023795e-05    0.000000000e+00    0.000000000e+00    0.000000000e+00    0.000000000e+00
       18574780    9.030547738e-01   -4.182338715e-01   -9.049661458e-06    6.699003279e-06    0.000000000e+00    0.000000000e+00    0.000000000e+00    0.000000000e+00
       24733040    8.346365094e-01   -5.422834754e-01    2.128817141e-05    2.406537533e-06    0.000000000e+00    0.000000000e+00    0.000000000e+00    0.000000000e+00
       30891300    7.508770227e-01   -6.543041468e-01    1.083407551e-05   -1.470651478e-05    0.000000000e+00    0.000000000e+00    0.000000000e+00    0.000000000e+00
       37049560    6.535472274e-01   -7.525106668e-01    2.250913531e-05    4.324130714e-05    0.000000000e+00    0.000000000e+00    0.000000000e+00    0.000000000e+00
       43207820    5.437220931e-01   -8.358160853e-01    1.834519207e-05    2.998858690e-06    0.000000000e+00    0.000000000e+00    0.000000000e+00    0.000000000e+00
       49366080    4.262014925e-01   -9.024026990e-01    7.340498269e-05    1.845043153e-05    0.000000000e+00    0.000000000e+00    0.000000000e+00    0.000000000e+00
       55524340    3.014118969e-01   -9.527927041e-01    2.181343734e-05    2.948939800e-05    0.000000000e+00    0.000000000e+00    0.000000000e+00    0.000000000e+00
       61682600    1.718852520e-01   -9.862827063e-01   -2.671033144e-06   -1.618266106e-05    0.000000000e+00    0.000000000e+00    0.000000000e+00    0.000000000e+00
       67840860    4.052280262e-02   -1.001330614e+00    3.961659968e-05    3.573764116e-05    0.000000000e+00    0.000000000e+00    0.000000000e+00    0.000000000e+00
       73999120   -8.973792195e-02   -9.996204376e-01    4.741735756e-05    2.082157880e-05    0.000000000e+00    0.000000000e+00    0.000000000e+00    0.000000000e+00
       80157380   -2.185989171e-01   -9.814871550e-01    6.505567580e-05    6.671994925e-06    0.000000000e+00    0.000000000e+00    0.000000000e+00    0.000000000e+00
       86315640   -3.408158123e-01   -9.473245144e-01    8.134357631e-05    1.351721585e-05    0.000000000e+00    0.000000000e+00    0.000000000e+00    0.000000000e+00
       92473900   -4.580239356e-01   -8.987421989e-01    8.418038487e-05    2.828333527e-05    0.000000000e+00    0.000000000e+00    0.000000000e+00    0.000000000e+00
       98632160   -5.665865541e-01   -8.357959390e-01    8.263997734e-05   -1.929048449e-05    0.000000000e+00    0.000000000e+00    0.000000000e+00    0.000000000e+00
      104790420   -6.345615983e-01   -7.041135430e-01    1.073786989e-04   -4.306249321e-05    0.000000000e+00    0.000000000e+00    0.000000000e+00    0.000000000e+00
      110948680   -7.114363909e-01   -6.234173775e-01    7.903948426e-05   -5.213357508e-05    0.000000000e+00    0.000000000e+00    0.000000000e+00    0.000000000e+00
      117106940   -7.788014412e-01   -5.356906056e-01    4.165712744e-05   -1.721177250e-05    0.000000000e+00    0.000000000e+00    0.000000000e+00    0.000000000e+00
      123265200   -8.356847167e-01   -4.417307377e-01    5.122926086e-05   -5.019828677e-05    0.000000000e+00    0.000000000e+00    0.000000000e+00    0.000000000e+00
      129423460   -8.816945553e-01   -3.419005871e-01    7.793493569e-05   -7.303990424e-05    0.000000000e+00    0.000000000e+00    0.000000000e+00    0.000000000e+00
      135581720   -9.169078469e-01   -2.370467186e-01    9.379722178e-05   -8.760020137e-05    0.000000000e+00    0.000000000e+00    0.000000000e+00    0.000000000e+00
      141739980   -9.398881197e-01   -1.282219440e-01    7.156655192e-05   -6.941519678e-05    0.000000000e+00    0.000000000e+00    0.000000000e+00    0.000000000e+00
      147898240   -9.494586587e-01   -1.656524092e-02    6.210710853e-05   -8.021946996e-05    0.000000000e+00    0.000000000e+00    0.000000000e+00    0.000000000e+00
      154056500   -9.462571740e-01    9.737034887e-02    4.228483886e-05   -5.230866373e-05    0.000000000e+00    0.000000000e+00    0.000000000e+00    0.000000000e+00
      160214761   -9.290589690e-01    2.112586796e-01   -6.608664989e-06   -1.092040911e-04    0.000000000e+00    0.000000000e+00    0.000000000e+00    0.000000000e+00
      166373021   -8.976618648e-01    3.243350089e-01    1.526065171e-05   -8.623022586e-05    0.000000000e+00    0.000000000e+00    0.000000000e+00    0.000000000e+00
      172531281   -8.513449430e-01    4.348256588e-01   -6.155110896e-06   -1.402990893e-04    0.000000000e+00    0.000000000e+00    0.000000000e+00    0.000000000e+00
      178689541   -7.907775640e-01    5.397762656e-01    3.919936717e-06   -1.060301438e-04    0.000000000e+00    0.000000000e+00    0.000000000e+00    0.000000000e+00
      184847801   -7.143644691e-01    6.381435394e-01    4.403293133e-06   -9.810924530e-05    0.000000000e+00    0.000000000e+00    0.000000000e+00    0.000000000e+00
      191006061   -6.249175072e-01    7.265411615e-01    1.597963274e-05   -9.690411389e-05    0.000000000e+00    0.000000000e+00    0.000000000e+00    0.000000000e+00
      197164321   -5.212099552e-01    8.029978275e-01    1.853425056e-05   -1.393165439e-04    0.000000000e+00    0.000000000e+00    0.000000000e+00    0.000000000e+00
      203322581   -4.064977169e-01    8.656109571e-01   -7.354654372e-06   -1.838821918e-04    0.000000000e+00    0.000000000e+00    0.000000000e+00    0.000000000e+00
      209480841   -2.818046808e-01    9.110057354e-01   -4.633702338e-05   -1.442739740e-04    0.000000000e+00    0.000000000e+00    0.000000000e+00    0.000000000e+00
      215639101   -1.503194571e-01    9.386405349e-01   -8.859112859e-05   -1.519303769e-04    0.000000000e+00    0.000000000e+00    0.000000000e+00    0.000000000e+00
      221797361   -1.472578663e-02    9.466781616e-01   -1.116236672e-04   -1.409770921e-04    0.000000000e+00    0.000000000e+00    0.000000000e+00    0.000000000e+00
      227955621    1.213388368e-01    9.343349338e-01   -1.453291625e-04   -1.003965735e-04    0.000000000e+00    0.000000000e+00    0.000000000e+00    0.000000000e+00
      234113881    2.550908625e-01    9.012534618e-01   -1.423750073e-04   -1.217247918e-04    0.000000000e+00    0.000000000e+00    0.000000000e+00    0.000000000e+00
      240272141    3.814428151e-01    8.486188650e-01   -1.188060269e-04   -1.042028889e-04    0.000000000e+00    0.000000000e+00    0.000000000e+00    0.000000000e+00
      246430401    4.994236529e-01    7.781167626e-01   -1.252237707e-04   -8.649844676e-05    0.000000000e+00    0.000000000e+00    0.000000000e+00    0.000000000e+00
      252588661    6.043584943e-01    6.918243766e-01   -1.900298521e-04   -4.232767969e-05    0.000000000e+00    0.000000000e+00    0.000000000e+00    0.000000000e+00
      258746921    6.953640580e-01    5.913147330e-01   -1.851823181e-04   -4.389788955e-05    0.000000000e+00    0.000000000e+00    0.000000000e+00    0.000000000e+00
      264905181    7.697348595e-01    4.792487323e-01   -2.149036154e-04    1.571979374e-05    0.000000000e+00    0.000000000e+00    0.000000000e+00    0.000000000e+00
      271063441    8.263916373e-01    3.607346714e-01   -1.929644495e-04    4.666298628e-05    0.000000000e+00    0.000000000e+00    0.000000000e+00    0.000000000e+00
      277221701    8.661695719e-01    2.365903556e-01   -2.283975482e-04    6.305705756e-05    0.000000000e+00    0.000000000e+00    0.000000000e+00    0.000000000e+00
      283379961    8.874059916e-01    1.103239208e-01   -1.899935305e-04    6.639119238e-05    0.000000000e+00    0.000000000e+00    0.000000000e+00    0.000000000e+00
      289538221    8.916118741e-01   -1.571562886e-02   -2.094060183e-04    9.602680802e-05    0.000000000e+00    0.000000000e+00    0.000000000e+00    0.000000000e+00
      295696481    8.793724179e-01   -1.391701996e-01   -2.244627103e-04    1.162793487e-04    0.000000000e+00    0.000000000e+00    0.000000000e+00    0.000000000e+00
      301854741    8.521595597e-01   -2.587426603e-01   -1.272056252e-04    1.340992749e-04    0.000000000e+00    0.000000000e+00    0.000000000e+00    0.000000000e+00
      308013001    8.103483915e-01   -3.710399270e-01   -1.752758399e-04    1.634815708e-04    0.000000000e+00    0.000000000e+00    0.000000000e+00    0.000000000e+00
      314171261    7.557933927e-01   -4.757994413e-01   -2.000331879e-04    1.385854557e-04    0.000000000e+00    0.000000000e+00    0.000000000e+00    0.000000000e+00
      320329521    6.905704141e-01   -5.724326968e-01   -1.125829294e-04    1.827226952e-04    0.000000000e+00    0.000000000e+00    0.000000000e+00    0.000000000e+00
      326487781    6.148298979e-01   -6.594331861e-01   -9.083468467e-05    1.912899315e-04    0.000000000e+00    0.000000000e+00    0.000000000e+00    0.000000000e+00
      332646041    5.295138359e-01   -7.355248928e-01   -7.520243526e-05    1.947963610e-04    0.000000000e+00    0.000000000e+00    0.000000000e+00    0.000000000e+00
      338804301    4.379964769e-01   -8.019033670e-01   -9.216554463e-05    2.511842176e-04    0.000000000e+00    0.000000000e+00    0.000000000e+00    0.000000000e+00
      344962561    3.387630284e-01   -8.557445407e-01   -3.371853381e-05    2.530300990e-04    0.000000000e+00    0.000000000e+00    0.000000000e+00    0.000000000e+00
      351120821    2.343109846e-01   -8.984113336e-01   -3.843475133e-05    2.744346857e-04    0.000000000e+00    0.000000000e+00    0.000000000e+00    0.000000000e+00
      357279081    1.273490489e-01   -9.283385873e-01    7.176771760e-06    2.263961360e-04    0.000000000e+00    0.000000000e+00    0.000000000e+00    0.000000000e+00
      363437341    1.584520191e-02   -9.454434514e-01    2.998951823e-05    2.697352320e-04    0.000000000e+00    0.000000000e+00    0.000000000e+00    0.000000000e+00
      369595601   -9.759484977e-02   -9.501360655e-01    7.478892803e-05    2.323612571e-04    0.000000000e+00    0.000000000e+00    0.000000000e+00    0.000000000e+00
      375753861   -2.096631378e-01   -9.415348172e-01    8.445978165e-05    2.281535417e-04    0.000000000e+00    0.000000000e+00    0.000000000e+00    0.000000000e+00
      381912121   -3.228102922e-01   -9.191525578e-01    1.274775714e-04    2.850592136e-04    0.000000000e+00    0.000000000e+00    0.000000000e+00    0.000000000e+00
      388070381   -4.329072833e-01   -8.832440972e-01    1.432700083e-04    2.485038713e-04    0.000000000e+00    0.000000000e+00    0.000000000e+00    0.000000000e+00
      394228641   -5.383284688e-01   -8.331862688e-01    1.960303634e-04    2.172533423e-04    0.000000000e+00    0.000000000e+00    0.000000000e+00    0.000000000e+00
      400386901   -6.396414638e-01   -7.704467177e-01    1.659868285e-04    2.334527671e-04    0.000000000e+00    0.000000000e+00    0.000000000e+00    0.000000000e+00
      406545161   -7.326604128e-01   -6.941186786e-01    2.230424434e-04    1.823892817e-04    0.000000000e+00    0.000000000e+00    0.000000000e+00    0.000000000e+00
      412703421   -8.163849115e-01   -6.041514874e-01    2.514980733e-04    1.534111798e-04    0.000000000e+00    0.000000000e+00    0.000000000e+00    0.000000000e+00
      418861681   -8.894279003e-01   -5.031709075e-01    2.858303487e-04    1.359153539e-04    0.000000000e+00    0.000000000e+00    0.000000000e+00    0.000000000e+00
      425019941   -9.487960935e-01   -3.922425807e-01    2.711378038e-04    1.258840784e-04    0.000000000e+00    0.000000000e+00    0.000000000e+00    0.000000000e+00
      431178201   -9.928864241e-01   -2.710031867e-01    3.479514271e-04    8.499715477e-05    0.000000000e+00    0.000000000e+00    0.000000000e+00    0.000000000e+00
      437336461   -1.020007372e+00   -1.427018791e-01    3.396933898e-04    4.017632455e-05    0.000000000e+00    0.000000000e+00    0.000000000e+00    0.000000000e+00
      443494721   -1.029250264e+00   -1.197321061e-02    3.307256848e-04    1.017004251e-06    0.000000000e+00    0.000000000e+00    0.000000000e+00    0.000000000e+00
      449652981   -1.019829869e+00    1.225268319e-01    3.670286387e-04   -2.228282392e-05    0.000000000e+00    0.000000000e+00    0.000000000e+00    0.000000000e+00
      455811241   -9.898207784e-01    2.535630465e-01    3.666449338e-04   -7.411744446e-05    0.000000000e+00    0.000000000e+00    0.000000000e+00    0.000000000e+00
      461969501   -9.403520823e-01    3.809637129e-01    3.432007506e-04   -1.257639378e-04    0.000000000e+00    0.000000000e+00    0.000000000e+00    0.000000000e+00
      468127761   -8.726872802e-01    5.010780096e-01    3.496883437e-04   -1.607891172e-04    0.000000000e+00    0.000000000e+00    0.000000000e+00    0.000000000e+00
      474286022   -7.880079746e-01    6.086022258e-01    3.466969356e-04   -1.752572134e-04    0.000000000e+00    0.000000000e+00    0.000000000e+00    0.000000000e+00
      480444282   -6.885550022e-01    7.017810345e-01    3.370530903e-04   -2.194372937e-04    0.000000000e+00    0.000000000e+00    0.000000000e+00    0.000000000e+00
      486602542   -5.739291310e-01    7.809680700e-01    3.495076671e-04   -2.346653491e-04    0.000000000e+00    0.000000000e+00    0.000000000e+00    0.000000000e+00
      492760802   -4.520166516e-01    8.410201669e-01    2.565011382e-04   -2.629533410e-04    0.000000000e+00    0.000000000e+00    0.000000000e+00    0.000000000e+00
      498919062   -3.228173256e-01    8.820036054e-01    2.591060475e-04   -3.388104960e-04    0.000000000e+00    0.000000000e+00    0.000000000e+00    0.000000000e+00
      505077322   -1.905453354e-01    9.030987024e-01    2.081310377e-04   -3.853896633e-04    0.000000000e+00    0.000000000e+00    0.000000000e+00    0.000000000e+00
      511235582   -5.779650062e-02    9.050631523e-01    1.332415268e-04   -3.946181387e-04    0.000000000e+00    0.000000000e+00    0.000000000e+00    0.000000000e+00
      517393842    7.178324461e-02    8.882422447e-01    1.217564568e-04   -4.117423669e-04    0.000000000e+00    0.000000000e+00    0.000000000e+00    0.000000000e+00
      523552102    1.955761015e-01    8.543103337e-01    6.738957018e-05   -4.521813244e-04    0.000000000e+00    0.000000000e+00    0.000000000e+00    0.000000000e+00
      529710362    3.121494055e-01    8.038389087e-01   -1.293327659e-05   -4.361355677e-04    0.000000000e+00    0.000000000e+00    0.000000000e+00    0.000000000e+00
      535868622    4.188197255e-01    7.390657663e-01   -4.246737808e-05   -4.556057975e-04    0.000000000e+00    0.000000000e+00    0.000000000e+00    0.000000000e+00
      542026882    5.145398974e-01    6.625239253e-01   -1.367218792e-04   -4.751095548e-04    0.000000000e+00    0.000000000e+00    0.000000000e+00    0.000000000e+00
      548185142    5.979748964e-01    5.753445029e-01   -1.473110169e-04   -4.254905507e-04    0.000000000e+00    0.000000000e+00    0.000000000e+00    0.000000000e+00
      554343402    6.678468585e-01    4.800351858e-01   -1.515075564e-04   -3.833863884e-04    0.000000000e+00    0.000000000e+00    0.000000000e+00    0.000000000e+00
      560501662    7.249187827e-01    3.774959147e-01   -2.839872614e-04   -3.721788526e-04    0.000000000e+00    0.000000000e+00    0.000000000e+00    0.000000000e+00
      566659922    7.682129741e-01    2.704600692e-01   -3.112005070e-04   -3.445958719e-04    0.000000000e+00    0.000000000e+00    0.000000000e+00    0.000000000e+00
      572818182    7.969985008e-01    1.614685059e-01   -2.875030041e-04   -3.183903173e-04    0.000000000e+00    0.000000000e+00    0.000000000e+00    0.000000000e+00
      578976442    8.128759265e-01    4.998944327e-02   -3.541689366e-04   -3.400715068e-04    0.000000000e+00    0.000000000e+00    0.000000000e+00    0.000000000e+00
      585134702    8.151780963e-01   -6.127289683e-02   -3.634290770e-04   -2.682209015e-04    0.000000000e+00    0.000000000e+00    0.000000000e+00    0.000000000e+00
      591292962    8.035764694e-01   -1.724082828e-01   -4.407903180e-04   -2.158433199e-04    0.000000000e+00    0.000000000e+00    0.000000000e+00    0.000000000e+00
      597451222    7.799345851e-01   -2.779240310e-01   -4.636971280e-04   -2.011219040e-04    0.000000000e+00    0.000000000e+00    0.000000000e+00    0.000000000e+00
      603609482    7.433944941e-01   -3.824775219e-01   -4.896409810e-04   -1.497138292e-04    0.000000000e+00    0.000000000e+00    0.000000000e+00    0.000000000e+00
      609767742    6.952876449e-01   -4.800187945e-01   -4.882020876e-04   -1.054545864e-04    0.000000000e+00    0.000000000e+00    0.000000000e+00    0.000000000e+00
      615926002    6.360972524e-01   -5.724379420e-01   -5.304636434e-04   -5.617551506e-05    0.000000000e+00    0.000000000e+00    0.000000000e+00    0.000000000e+00
      622084262    5.660107136e-01   -6.563822627e-01   -5.038315430e-04    2.883374691e-05    0.000000000e+00    0.000000000e+00    0.000000000e+00    0.000000000e+00
      628242522    4.864925444e-01   -7.319155335e-01   -5.473326892e-04    2.948846668e-05    0.000000000e+00    0.000000000e+00    0.000000000e+00    0.000000000e+00
      634400782    3.962920606e-01   -7.986479402e-01   -5.104094744e-04    8.227024227e-05    0.000000000e+00    0.000000000e+00    0.000000000e+00    0.000000000e+00
      640559042    3.002873659e-01   -8.529120088e-01   -5.247360095e-04    1.690378413e-04    0.000000000e+00    0.000000000e+00    0.000000000e+00    0.000000000e+00
      646717302    1.956029981e-01   -8.956749439e-01   -5.370965227e-04    2.155639231e-04    0.000000000e+00    0.000000000e+00    0.000000000e+00    0.000000000e+00
      652875562    8.597087860e-02   -9.263145924e-01   -5.600880831e-04    2.869255841e-04    0.000000000e+00    0.000000000e+00    0.000000000e+00    0.000000000e+00
      659033822   -2.797026187e-02   -9.421493411e-01   -4.597557709e-04    3.911964595e-04    0.000000000e+00    0.000000000e+00    0.000000000e+00    0.000000000e+00
      665192082   -1.446719319e-01   -9.433470964e-01   -4.760818556e-04    4.162471741e-04    0.000000000e+00    0.000000000e+00    0.000000000e+00    0.000000000e+00
      671350342   -2.625105679e-01   -9.288161993e-01   -4.159612581e-04    4.565278068e-04    0.000000000e+00    0.000000000e+00    0.000000000e+00    0.000000000e+00
      677508602   -3.774559200e-01   -8.984436393e-01   -3.371480852e-04    5.148453638e-04    0.000000000e+00    0.000000000e+00    0.000000000e+00    0.000000000e+00
      683666862   -4.899404645e-01   -8.525091410e-01   -2.733077854e-04    5.473932251e-04    0.000000000e+00    0.000000000e+00    0.000000000e+00    0.000000000e+00
      689825122   -5.951657295e-01   -7.901310325e-01   -2.450477332e-04    5.988394842e-04    0.000000000e+00    0.000000000e+00    0.000000000e+00    0.000000000e+00
      695983382   -6.935622692e-01   -7.124217749e-01   -1.503964886e-04    6.107939407e-04    0.000000000e+00    0.000000000e+00    0.000000000e+00    0.000000000e+00
      702141642   -7.800542712e-01   -6.209988594e-01   -1.268191263e-04    6.727520376e-04    0.000000000e+00    0.000000000e+00    0.000000000e+00    0.000000000e+00
      708299902   -8.529536128e-01   -5.175327659e-01    9.709969163e-06    7.219044492e-04    0.000000000e+00    0.000000000e+00    0.000000000e+00    0.000000000e+00
      714458162   -9.101513624e-01   -4.049300849e-01    1.669209450e-05    6.927950308e-04    0.000000000e+00    0.000000000e+00    0.000000000e+00    0.000000000e+00
